[36m2025-08-04 20:12:41.675 DEBUG (SyncWorker_4) [custom_components.thessla_green_modbus.device_scanner] Found holding register target_temperature (0x10D0) = 0[0m
[36m2025-08-04 20:12:41.675 DEBUG (SyncWorker_4) [custom_components.thessla_green_modbus.device_scanner] Scanning holding register group: special_functions[0m
[36m2025-08-04 20:12:41.861 DEBUG (SyncWorker_4) [pymodbus.logging] Processing: 0x0 0x1f 0x0 0x0 0x0 0xb 0xa 0x3 0x8 0x0 0x64 0x0 0x64 0x0 0x15 0x0 0x64[0m
[36m2025-08-04 20:12:41.861 DEBUG (SyncWorker_4) [pymodbus.logging] decoded PDU function_code(3 sub -1) -> ReadHoldingRegistersResponse(dev_id=0, transaction_id=0, address=0, count=0, bits=[], registers=[100, 100, 21, 100], status=1) [0m
[36m2025-08-04 20:12:41.861 DEBUG (SyncWorker_4) [pymodbus.logging] Frame advanced, resetting header!![0m
[36m2025-08-04 20:12:41.861 DEBUG (SyncWorker_4) [custom_components.thessla_green_modbus.device_scanner] Found holding register special_function_timer (0x1083) = 100[0m
[36m2025-08-04 20:12:41.861 DEBUG (SyncWorker_4) [custom_components.thessla_green_modbus.device_scanner] Found holding register okap_timer (0x1084) = 21[0m
[36m2025-08-04 20:12:41.861 DEBUG (SyncWorker_4) [custom_components.thessla_green_modbus.device_scanner] Found holding register fireplace_timer (0x1085) = 100[0m
[36m2025-08-04 20:12:41.862 DEBUG (SyncWorker_4) [custom_components.thessla_green_modbus.device_scanner] Scanning holding register group: gwc_system[0m
[36m2025-08-04 20:12:42.050 DEBUG (SyncWorker_4) [pymodbus.logging] Processing: 0x0 0x20 0x0 0x0 0x0 0x9 0xa 0x3 0x6 0x0 0x0 0x0 0xa 0x0 0x32[0m
[36m2025-08-04 20:12:42.050 DEBUG (SyncWorker_4) [pymodbus.logging] decoded PDU function_code(3 sub -1) -> ReadHoldingRegistersResponse(dev_id=0, transaction_id=0, address=0, count=0, bits=[], registers=[0, 10, 50], status=1) [0m
[36m2025-08-04 20:12:42.050 DEBUG (SyncWorker_4) [pymodbus.logging] Frame advanced, resetting header!![0m
[36m2025-08-04 20:12:42.050 DEBUG (SyncWorker_4) [custom_components.thessla_green_modbus.device_scanner] Found holding register gwc_mode (0x10A0) = 0[0m
[36m2025-08-04 20:12:42.050 DEBUG (SyncWorker_4) [custom_components.thessla_green_modbus.device_scanner] Found holding register gwc_season_mode (0x10A1) = 10[0m
[36m2025-08-04 20:12:42.050 DEBUG (SyncWorker_4) [custom_components.thessla_green_modbus.device_scanner] Found holding register gwc_temperature_threshold (0x10A2) = 50[0m
[36m2025-08-04 20:12:42.050 DEBUG (SyncWorker_4) [custom_components.thessla_green_modbus.device_scanner] Scanning holding register group: bypass_system[0m
[36m2025-08-04 20:12:42.239 DEBUG (SyncWorker_4) [pymodbus.logging] Processing: 0x0 0x21 0x0 0x0 0x0 0x7 0xa 0x3 0x4 0x0 0x0 0x0 0x14[0m
[36m2025-08-04 20:12:42.240 DEBUG (SyncWorker_4) [pymodbus.logging] decoded PDU function_code(3 sub -1) -> ReadHoldingRegistersResponse(dev_id=0, transaction_id=0, address=0, count=0, bits=[], registers=[0, 20], status=1) [0m
[36m2025-08-04 20:12:42.240 DEBUG (SyncWorker_4) [pymodbus.logging] Frame advanced, resetting header!![0m
[36m2025-08-04 20:12:42.240 DEBUG (SyncWorker_4) [custom_components.thessla_green_modbus.device_scanner] Found holding register bypass_mode (0x10E0) = 0[0m
[36m2025-08-04 20:12:42.240 DEBUG (SyncWorker_4) [custom_components.thessla_green_modbus.device_scanner] Found holding register bypass_temperature_threshold (0x10E1) = 20[0m
[36m2025-08-04 20:12:42.240 DEBUG (SyncWorker_4) [custom_components.thessla_green_modbus.device_scanner] Scanning holding register group: system_flags[0m
[36m2025-08-04 20:12:42.423 DEBUG (SyncWorker_4) [pymodbus.logging] Processing: 0x0 0x22 0x0 0x0 0x0 0x7 0xa 0x3 0x4 0x0 0x0 0x0 0x0[0m
[36m2025-08-04 20:12:42.423 DEBUG (SyncWorker_4) [pymodbus.logging] decoded PDU function_code(3 sub -1) -> ReadHoldingRegistersResponse(dev_id=0, transaction_id=0, address=0, count=0, bits=[], registers=[0, 0], status=1) [0m
[36m2025-08-04 20:12:42.423 DEBUG (SyncWorker_4) [pymodbus.logging] Frame advanced, resetting header!![0m
[36m2025-08-04 20:12:42.423 DEBUG (SyncWorker_4) [custom_components.thessla_green_modbus.device_scanner] Found holding register alarm_flag (0x2000) = 0[0m
[36m2025-08-04 20:12:42.423 DEBUG (SyncWorker_4) [custom_components.thessla_green_modbus.device_scanner] Found holding register error_flag (0x2001) = 0[0m
[36m2025-08-04 20:12:42.611 DEBUG (SyncWorker_4) [pymodbus.logging] Processing: 0x0 0x23 0x0 0x0 0x0 0x5 0xa 0x1 0x2 0x52 0x0[0m
[36m2025-08-04 20:12:42.611 DEBUG (SyncWorker_4) [pymodbus.logging] decoded PDU function_code(1 sub -1) -> ReadCoilsResponse(dev_id=0, transaction_id=0, address=0, count=0, bits=[False, True, False, False, True, False, True, False, False, False, False, False, False, False, False, False], registers=[], status=1) [0m
[36m2025-08-04 20:12:42.611 DEBUG (SyncWorker_4) [pymodbus.logging] Frame advanced, resetting header!![0m
[36m2025-08-04 20:12:42.611 DEBUG (SyncWorker_4) [custom_components.thessla_green_modbus.device_scanner] Found coil duct_water_heater_pump (0x0005) = False[0m
[36m2025-08-04 20:12:42.611 DEBUG (SyncWorker_4) [custom_components.thessla_green_modbus.device_scanner] Found coil bypass (0x0009) = True[0m
[36m2025-08-04 20:12:42.611 DEBUG (SyncWorker_4) [custom_components.thessla_green_modbus.device_scanner] Found coil info (0x000A) = False[0m
[36m2025-08-04 20:12:42.611 DEBUG (SyncWorker_4) [custom_components.thessla_green_modbus.device_scanner] Found coil power_supply_fans (0x000B) = True[0m
[36m2025-08-04 20:12:42.612 DEBUG (SyncWorker_4) [custom_components.thessla_green_modbus.device_scanner] Found coil heating_cable (0x000C) = False[0m
[36m2025-08-04 20:12:42.612 DEBUG (SyncWorker_4) [custom_components.thessla_green_modbus.device_scanner] Found coil work_permit (0x000D) = False[0m
[36m2025-08-04 20:12:42.612 DEBUG (SyncWorker_4) [custom_components.thessla_green_modbus.device_scanner] Found coil gwc (0x000E) = False[0m
[36m2025-08-04 20:12:42.612 DEBUG (SyncWorker_4) [custom_components.thessla_green_modbus.device_scanner] Found coil hood (0x000F) = False[0m
[36m2025-08-04 20:12:42.794 DEBUG (SyncWorker_4) [pymodbus.logging] Processing: 0x0 0x24 0x0 0x0 0x0 0x6 0xa 0x2 0x3 0x1c 0xc3 0x1[0m
[36m2025-08-04 20:12:42.794 DEBUG (SyncWorker_4) [pymodbus.logging] decoded PDU function_code(2 sub -1) -> ReadDiscreteInputsResponse(dev_id=0, transaction_id=0, address=0, count=0, bits=[False, False, True, True, True, False, False, False, True, True, False, False, False, False, True, True, True, False, False, False, False, False, False, False], registers=[], status=1) [0m
[36m2025-08-04 20:12:42.794 DEBUG (SyncWorker_4) [pymodbus.logging] Frame advanced, resetting header!![0m
[36m2025-08-04 20:12:42.795 DEBUG (SyncWorker_4) [custom_components.thessla_green_modbus.device_scanner] Found discrete input duct_heater_protection (0x0000) = False[0m
[36m2025-08-04 20:12:42.795 DEBUG (SyncWorker_4) [custom_components.thessla_green_modbus.device_scanner] Found discrete input expansion (0x0001) = False[0m
[36m2025-08-04 20:12:42.795 DEBUG (SyncWorker_4) [custom_components.thessla_green_modbus.device_scanner] Found discrete input dp_duct_filter_overflow (0x0003) = True[0m
[36m2025-08-04 20:12:42.795 DEBUG (SyncWorker_4) [custom_components.thessla_green_modbus.device_scanner] Found discrete input hood_input (0x0004) = True[0m
[36m2025-08-04 20:12:42.795 DEBUG (SyncWorker_4) [custom_components.thessla_green_modbus.device_scanner] Found discrete input contamination_sensor (0x0005) = False[0m
[36m2025-08-04 20:12:42.795 DEBUG (SyncWorker_4) [custom_components.thessla_green_modbus.device_scanner] Found discrete input airing_sensor (0x0006) = False[0m
[36m2025-08-04 20:12:42.795 DEBUG (SyncWorker_4) [custom_components.thessla_green_modbus.device_scanner] Found discrete input airing_switch (0x0007) = False[0m
[36m2025-08-04 20:12:42.795 DEBUG (SyncWorker_4) [custom_components.thessla_green_modbus.device_scanner] Found discrete input airing_mini (0x000A) = False[0m
[36m2025-08-04 20:12:42.795 DEBUG (SyncWorker_4) [custom_components.thessla_green_modbus.device_scanner] Found discrete input fan_speed_3 (0x000B) = False[0m
[36m2025-08-04 20:12:42.795 DEBUG (SyncWorker_4) [custom_components.thessla_green_modbus.device_scanner] Found discrete input fan_speed_2 (0x000C) = False[0m
[36m2025-08-04 20:12:42.795 DEBUG (SyncWorker_4) [custom_components.thessla_green_modbus.device_scanner] Found discrete input fan_speed_1 (0x000D) = False[0m
[36m2025-08-04 20:12:42.795 DEBUG (SyncWorker_4) [custom_components.thessla_green_modbus.device_scanner] Found discrete input fireplace (0x000E) = True[0m
[36m2025-08-04 20:12:42.795 DEBUG (SyncWorker_4) [custom_components.thessla_green_modbus.device_scanner] Found discrete input fire_alarm (0x000F) = True[0m
[36m2025-08-04 20:12:42.795 DEBUG (SyncWorker_4) [custom_components.thessla_green_modbus.device_scanner] Found discrete input dp_ahu_filter_overflow (0x0012) = False[0m
[36m2025-08-04 20:12:42.795 DEBUG (SyncWorker_4) [custom_components.thessla_green_modbus.device_scanner] Found discrete input ahu_filter_protection (0x0013) = False[0m
[36m2025-08-04 20:12:42.795 DEBUG (SyncWorker_4) [custom_components.thessla_green_modbus.device_scanner] Found discrete input empty_house (0x0015) = False[0m
[32m2025-08-04 20:12:42.796 INFO (SyncWorker_4) [custom_components.thessla_green_modbus.device_scanner] Detected device model: AirPack Home Energy+ with CF and GWC[0m
[32m2025-08-04 20:12:42.796 INFO (SyncWorker_4) [custom_components.thessla_green_modbus.device_scanner] OPTIMIZED scan complete: 15 input, 17 holding, 8 coils, 16 discrete (61.1% success, 16.66s)[0m
[32m2025-08-04 20:12:42.797 INFO (MainThread) [custom_components.thessla_green_modbus.config_flow] Successfully connected with slave_id=10[0m
[32m2025-08-04 20:12:42.797 INFO (MainThread) [custom_components.thessla_green_modbus.config_flow] Device validation successful: ThesslaGreen AirPack (firmware Unknown, 15 capabilities, slave_id=10)[0m
[32m2025-08-04 20:12:42.799 INFO (MainThread) [custom_components.thessla_green_modbus] Setting up ENHANCED ThesslaGreen Modbus: 192.168.3.17:8899 (slave_id=10, scan=30s)[0m
[32m2025-08-04 20:12:42.799 INFO (MainThread) [custom_components.thessla_green_modbus.coordinator] Starting optimized device scan...[0m
[32m2025-08-04 20:12:42.800 INFO (SyncWorker_3) [custom_components.thessla_green_modbus.device_scanner] Starting OPTIMIZED device capability scan for 192.168.3.17:8899 (slave_id=10)[0m
[36m2025-08-04 20:12:42.823 DEBUG (SyncWorker_3) [pymodbus.logging] Connection to Modbus server established. Socket ('192.168.1.83', 32784)[0m
[36m2025-08-04 20:12:52.962 DEBUG (SyncWorker_3) [pymodbus.logging] Processing: 0x0 0x1 0x0 0x0 0x0 0x3 0xa 0x84 0x2[0m
[36m2025-08-04 20:12:52.962 DEBUG (SyncWorker_3) [pymodbus.logging] Frame advanced, resetting header!![0m
[33m2025-08-04 20:12:52.962 WARNING (SyncWorker_3) [custom_components.thessla_green_modbus.device_scanner] Failed to read firmware version[0m
[36m2025-08-04 20:12:53.160 DEBUG (SyncWorker_3) [pymodbus.logging] Processing: 0x0 0x2 0x0 0x0 0x0 0xf 0xa 0x4 0xc 0x0 0xdf 0x0 0x65 0x0 0x72 0x0 0x1b 0x0 0x0 0x0 0x0[0m
[36m2025-08-04 20:12:53.160 DEBUG (SyncWorker_3) [pymodbus.logging] decoded PDU function_code(4 sub -1) -> ReadInputRegistersResponse(dev_id=0, transaction_id=0, address=0, count=0, bits=[], registers=[223, 101, 114, 27, 0, 0], status=1) [0m
[36m2025-08-04 20:12:53.160 DEBUG (SyncWorker_3) [pymodbus.logging] Frame advanced, resetting header!![0m
[36m2025-08-04 20:12:53.340 DEBUG (SyncWorker_3) [pymodbus.logging] Processing: 0x0 0x3 0x0 0x0 0x0 0x13 0xa 0x3 0x10 0x0 0x0 0x0 0x0 0x0 0x0 0x0 0x0 0x0 0x0 0x0 0x0 0x0 0x0 0x0 0x0[0m
[36m2025-08-04 20:12:53.340 DEBUG (SyncWorker_3) [pymodbus.logging] decoded PDU function_code(3 sub -1) -> ReadHoldingRegistersResponse(dev_id=0, transaction_id=0, address=0, count=0, bits=[], registers=[0, 0, 0, 0, 0, 0, 0, 0], status=1) [0m
[36m2025-08-04 20:12:53.340 DEBUG (SyncWorker_3) [pymodbus.logging] Frame advanced, resetting header!![0m
[36m2025-08-04 20:12:53.340 DEBUG (SyncWorker_3) [custom_components.thessla_green_modbus.device_scanner] Scanning input register group: critical[0m
[36m2025-08-04 20:12:53.504 DEBUG (SyncWorker_3) [pymodbus.logging] Processing: 0x0 0x4 0x0 0x0 0x0 0x3 0xa 0x84 0x2[0m
[36m2025-08-04 20:12:53.504 DEBUG (SyncWorker_3) [pymodbus.logging] Frame advanced, resetting header!![0m
[36m2025-08-04 20:12:53.690 DEBUG (SyncWorker_3) [pymodbus.logging] Processing: 0x0 0x5 0x0 0x0 0x0 0x5 0xa 0x4 0x2 0x0 0x3[0m
[36m2025-08-04 20:12:53.690 DEBUG (SyncWorker_3) [pymodbus.logging] decoded PDU function_code(4 sub -1) -> ReadInputRegistersResponse(dev_id=0, transaction_id=0, address=0, count=0, bits=[], registers=[3], status=1) [0m
[36m2025-08-04 20:12:53.690 DEBUG (SyncWorker_3) [pymodbus.logging] Frame advanced, resetting header!![0m
[36m2025-08-04 20:12:53.878 DEBUG (SyncWorker_3) [pymodbus.logging] Processing: 0x0 0x6 0x0 0x0 0x0 0x5 0xa 0x4 0x2 0x0 0xb[0m
[36m2025-08-04 20:12:53.878 DEBUG (SyncWorker_3) [pymodbus.logging] decoded PDU function_code(4 sub -1) -> ReadInputRegistersResponse(dev_id=0, transaction_id=0, address=0, count=0, bits=[], registers=[11], status=1) [0m
[36m2025-08-04 20:12:53.878 DEBUG (SyncWorker_3) [pymodbus.logging] Frame advanced, resetting header!![0m
[36m2025-08-04 20:12:54.069 DEBUG (SyncWorker_3) [pymodbus.logging] Processing: 0x0 0x7 0x0 0x0 0x0 0x5 0xa 0x4 0x2 0x0 0x0[0m
[36m2025-08-04 20:12:54.069 DEBUG (SyncWorker_3) [pymodbus.logging] decoded PDU function_code(4 sub -1) -> ReadInputRegistersResponse(dev_id=0, transaction_id=0, address=0, count=0, bits=[], registers=[0], status=1) [0m
[36m2025-08-04 20:12:54.070 DEBUG (SyncWorker_3) [pymodbus.logging] Frame advanced, resetting header!![0m
[36m2025-08-04 20:12:54.251 DEBUG (SyncWorker_3) [pymodbus.logging] Processing: 0x0 0x8 0x0 0x0 0x0 0x5 0xa 0x4 0x2 0x0 0x3[0m
[36m2025-08-04 20:12:54.251 DEBUG (SyncWorker_3) [pymodbus.logging] decoded PDU function_code(4 sub -1) -> ReadInputRegistersResponse(dev_id=0, transaction_id=0, address=0, count=0, bits=[], registers=[3], status=1) [0m
[36m2025-08-04 20:12:54.251 DEBUG (SyncWorker_3) [pymodbus.logging] Frame advanced, resetting header!![0m
[36m2025-08-04 20:12:54.440 DEBUG (SyncWorker_3) [pymodbus.logging] Processing: 0x0 0x9 0x0 0x0 0x0 0x3 0xa 0x84 0x2[0m
[36m2025-08-04 20:12:54.440 DEBUG (SyncWorker_3) [pymodbus.logging] Frame advanced, resetting header!![0m
[36m2025-08-04 20:12:54.623 DEBUG (SyncWorker_3) [pymodbus.logging] Processing: 0x0 0xa 0x0 0x0 0x0 0x3 0xa 0x84 0x2[0m
[36m2025-08-04 20:12:54.623 DEBUG (SyncWorker_3) [pymodbus.logging] Frame advanced, resetting header!![0m
[36m2025-08-04 20:12:54.802 DEBUG (SyncWorker_3) [pymodbus.logging] Processing: 0x0 0xb 0x0 0x0 0x0 0x3 0xa 0x84 0x2[0m
[36m2025-08-04 20:12:54.802 DEBUG (SyncWorker_3) [pymodbus.logging] Frame advanced, resetting header!![0m
[36m2025-08-04 20:12:54.802 DEBUG (SyncWorker_3) [custom_components.thessla_green_modbus.device_scanner] Scanning input register group: temperatures[0m
[36m2025-08-04 20:12:54.989 DEBUG (SyncWorker_3) [pymodbus.logging] Processing: 0x0 0xc 0x0 0x0 0x0 0x9 0xa 0x4 0x6 0x0 0xd5 0x0 0xdd 0x1 0x3[0m
[36m2025-08-04 20:12:54.989 DEBUG (SyncWorker_3) [pymodbus.logging] decoded PDU function_code(4 sub -1) -> ReadInputRegistersResponse(dev_id=0, transaction_id=0, address=0, count=0, bits=[], registers=[213, 221, 259], status=1) [0m
[36m2025-08-04 20:12:54.989 DEBUG (SyncWorker_3) [pymodbus.logging] Frame advanced, resetting header!![0m
[36m2025-08-04 20:12:54.989 DEBUG (SyncWorker_3) [custom_components.thessla_green_modbus.device_scanner] Found input register duct_supply_temperature (0x0010) = 213[0m
[36m2025-08-04 20:12:54.990 DEBUG (SyncWorker_3) [custom_components.thessla_green_modbus.device_scanner] Found input register gwc_temperature (0x0011) = 221[0m
[36m2025-08-04 20:12:54.990 DEBUG (SyncWorker_3) [custom_components.thessla_green_modbus.device_scanner] Found input register ambient_temperature (0x0012) = 259[0m
[36m2025-08-04 20:12:54.990 DEBUG (SyncWorker_3) [custom_components.thessla_green_modbus.device_scanner] Scanning input register group: airflow[0m
[36m2025-08-04 20:12:55.164 DEBUG (SyncWorker_3) [pymodbus.logging] Processing: 0x0 0xd 0x0 0x0 0x0 0x3 0xa 0x84 0x2[0m
[36m2025-08-04 20:12:55.164 DEBUG (SyncWorker_3) [pymodbus.logging] Frame advanced, resetting header!![0m
[36m2025-08-04 20:12:55.357 DEBUG (SyncWorker_3) [pymodbus.logging] Processing: 0x0 0xe 0x0 0x0 0x0 0x5 0xa 0x4 0x2 0x0 0x0[0m
[36m2025-08-04 20:12:55.357 DEBUG (SyncWorker_3) [pymodbus.logging] decoded PDU function_code(4 sub -1) -> ReadInputRegistersResponse(dev_id=0, transaction_id=0, address=0, count=0, bits=[], registers=[0], status=1) [0m
[36m2025-08-04 20:12:55.357 DEBUG (SyncWorker_3) [pymodbus.logging] Frame advanced, resetting header!![0m
[36m2025-08-04 20:12:55.548 DEBUG (SyncWorker_3) [pymodbus.logging] Processing: 0x0 0xf 0x0 0x0 0x0 0x5 0xa 0x4 0x2 0x0 0x1[0m
[36m2025-08-04 20:12:55.548 DEBUG (SyncWorker_3) [pymodbus.logging] decoded PDU function_code(4 sub -1) -> ReadInputRegistersResponse(dev_id=0, transaction_id=0, address=0, count=0, bits=[], registers=[1], status=1) [0m
[36m2025-08-04 20:12:55.548 DEBUG (SyncWorker_3) [pymodbus.logging] Frame advanced, resetting header!![0m
[36m2025-08-04 20:12:55.730 DEBUG (SyncWorker_3) [pymodbus.logging] Processing: 0x0 0x10 0x0 0x0 0x0 0x5 0xa 0x4 0x2 0x0 0x1[0m
[36m2025-08-04 20:12:55.730 DEBUG (SyncWorker_3) [pymodbus.logging] decoded PDU function_code(4 sub -1) -> ReadInputRegistersResponse(dev_id=0, transaction_id=0, address=0, count=0, bits=[], registers=[1], status=1) [0m
[36m2025-08-04 20:12:55.730 DEBUG (SyncWorker_3) [pymodbus.logging] Frame advanced, resetting header!![0m
[36m2025-08-04 20:12:55.919 DEBUG (SyncWorker_3) [pymodbus.logging] Processing: 0x0 0x11 0x0 0x0 0x0 0x3 0xa 0x84 0x2[0m
[36m2025-08-04 20:12:55.919 DEBUG (SyncWorker_3) [pymodbus.logging] Frame advanced, resetting header!![0m
[36m2025-08-04 20:12:56.102 DEBUG (SyncWorker_3) [pymodbus.logging] Processing: 0x0 0x12 0x0 0x0 0x0 0x3 0xa 0x84 0x2[0m
[36m2025-08-04 20:12:56.102 DEBUG (SyncWorker_3) [pymodbus.logging] Frame advanced, resetting header!![0m
[36m2025-08-04 20:12:56.281 DEBUG (SyncWorker_3) [pymodbus.logging] Processing: 0x0 0x13 0x0 0x0 0x0 0x3 0xa 0x84 0x2[0m
[36m2025-08-04 20:12:56.281 DEBUG (SyncWorker_3) [pymodbus.logging] Frame advanced, resetting header!![0m
[36m2025-08-04 20:12:56.281 DEBUG (SyncWorker_3) [custom_components.thessla_green_modbus.device_scanner] Scanning input register group: constant_flow[0m
[36m2025-08-04 20:12:56.464 DEBUG (SyncWorker_3) [pymodbus.logging] Processing: 0x0 0x14 0x0 0x0 0x0 0x5 0xa 0x4 0x2 0x0 0x1[0m
[36m2025-08-04 20:12:56.464 DEBUG (SyncWorker_3) [pymodbus.logging] decoded PDU function_code(4 sub -1) -> ReadInputRegistersResponse(dev_id=0, transaction_id=0, address=0, count=0, bits=[], registers=[1], status=1) [0m
[36m2025-08-04 20:12:56.464 DEBUG (SyncWorker_3) [pymodbus.logging] Frame advanced, resetting header!![0m
[36m2025-08-04 20:12:56.464 DEBUG (SyncWorker_3) [custom_components.thessla_green_modbus.device_scanner] Found input register constant_flow_active (0x010F) = 1[0m
[36m2025-08-04 20:12:56.643 DEBUG (SyncWorker_3) [pymodbus.logging] Processing: 0x0 0x15 0x0 0x0 0x0 0x3 0xa 0x84 0x2[0m
[36m2025-08-04 20:12:56.643 DEBUG (SyncWorker_3) [pymodbus.logging] Frame advanced, resetting header!![0m
[36m2025-08-04 20:12:56.834 DEBUG (SyncWorker_3) [pymodbus.logging] Processing: 0x0 0x16 0x0 0x0 0x0 0x3 0xa 0x84 0x2[0m
[36m2025-08-04 20:12:56.834 DEBUG (SyncWorker_3) [pymodbus.logging] Frame advanced, resetting header!![0m
[36m2025-08-04 20:12:57.025 DEBUG (SyncWorker_3) [pymodbus.logging] Processing: 0x0 0x17 0x0 0x0 0x0 0x3 0xa 0x84 0x2[0m
[36m2025-08-04 20:12:57.025 DEBUG (SyncWorker_3) [pymodbus.logging] Frame advanced, resetting header!![0m
[36m2025-08-04 20:12:57.208 DEBUG (SyncWorker_3) [pymodbus.logging] Processing: 0x0 0x18 0x0 0x0 0x0 0x3 0xa 0x84 0x2[0m
[36m2025-08-04 20:12:57.208 DEBUG (SyncWorker_3) [pymodbus.logging] Frame advanced, resetting header!![0m
[36m2025-08-04 20:12:57.398 DEBUG (SyncWorker_3) [pymodbus.logging] Processing: 0x0 0x19 0x0 0x0 0x0 0x3 0xa 0x84 0x2[0m
[36m2025-08-04 20:12:57.398 DEBUG (SyncWorker_3) [pymodbus.logging] Frame advanced, resetting header!![0m
[36m2025-08-04 20:12:57.398 DEBUG (SyncWorker_3) [custom_components.thessla_green_modbus.device_scanner] Scanning input register group: extended[0m
[36m2025-08-04 20:12:57.590 DEBUG (SyncWorker_3) [pymodbus.logging] Processing: 0x0 0x1a 0x0 0x0 0x0 0xb 0xa 0x4 0x8 0x0 0x0 0x0 0x54 0x0 0x3 0x0 0x4a[0m
[36m2025-08-04 20:12:57.590 DEBUG (SyncWorker_3) [pymodbus.logging] decoded PDU function_code(4 sub -1) -> ReadInputRegistersResponse(dev_id=0, transaction_id=0, address=0, count=0, bits=[], registers=[0, 84, 3, 74], status=1) [0m
[36m2025-08-04 20:12:57.590 DEBUG (SyncWorker_3) [pymodbus.logging] Frame advanced, resetting header!![0m
[36m2025-08-04 20:12:57.590 DEBUG (SyncWorker_3) [custom_components.thessla_green_modbus.device_scanner] Found input register expansion_temperature_1 (0x0500) = 0[0m
[36m2025-08-04 20:12:57.591 DEBUG (SyncWorker_3) [custom_components.thessla_green_modbus.device_scanner] Found input register expansion_temperature_2 (0x0501) = 84[0m
[36m2025-08-04 20:12:57.591 DEBUG (SyncWorker_3) [custom_components.thessla_green_modbus.device_scanner] Found input register expansion_humidity (0x0502) = 3[0m
[36m2025-08-04 20:12:57.591 DEBUG (SyncWorker_3) [custom_components.thessla_green_modbus.device_scanner] Found input register expansion_co2 (0x0503) = 74[0m
[36m2025-08-04 20:12:57.591 DEBUG (SyncWorker_3) [custom_components.thessla_green_modbus.device_scanner] Scanning holding register group: critical_control[0m
[36m2025-08-04 20:12:57.766 DEBUG (SyncWorker_3) [pymodbus.logging] Processing: 0x0 0x1b 0x0 0x0 0x0 0x9 0xa 0x3 0x6 0x0 0x1 0x0 0x0 0x0 0x1e[0m
[36m2025-08-04 20:12:57.766 DEBUG (SyncWorker_3) [pymodbus.logging] decoded PDU function_code(3 sub -1) -> ReadHoldingRegistersResponse(dev_id=0, transaction_id=0, address=0, count=0, bits=[], registers=[1, 0, 30], status=1) [0m
[36m2025-08-04 20:12:57.766 DEBUG (SyncWorker_3) [pymodbus.logging] Frame advanced, resetting header!![0m
[36m2025-08-04 20:12:57.767 DEBUG (SyncWorker_3) [custom_components.thessla_green_modbus.device_scanner] Found holding register mode (0x1070) = 1[0m
[36m2025-08-04 20:12:57.767 DEBUG (SyncWorker_3) [custom_components.thessla_green_modbus.device_scanner] Found holding register on_off_panel_mode (0x1071) = 0[0m
[36m2025-08-04 20:12:57.767 DEBUG (SyncWorker_3) [custom_components.thessla_green_modbus.device_scanner] Found holding register air_flow_rate_manual (0x1072) = 30[0m
[36m2025-08-04 20:12:57.943 DEBUG (SyncWorker_3) [pymodbus.logging] Processing: 0x0 0x1c 0x0 0x0 0x0 0x5 0xa 0x3 0x2 0x0 0x0[0m
[36m2025-08-04 20:12:57.943 DEBUG (SyncWorker_3) [pymodbus.logging] decoded PDU function_code(3 sub -1) -> ReadHoldingRegistersResponse(dev_id=0, transaction_id=0, address=0, count=0, bits=[], registers=[0], status=1) [0m
[36m2025-08-04 20:12:57.944 DEBUG (SyncWorker_3) [pymodbus.logging] Frame advanced, resetting header!![0m
[36m2025-08-04 20:12:57.944 DEBUG (SyncWorker_3) [custom_components.thessla_green_modbus.device_scanner] Found holding register season_mode (0x1120) = 0[0m
[36m2025-08-04 20:12:57.944 DEBUG (SyncWorker_3) [custom_components.thessla_green_modbus.device_scanner] Scanning holding register group: manual_control[0m
[36m2025-08-04 20:12:58.126 DEBUG (SyncWorker_3) [pymodbus.logging] Processing: 0x0 0x1d 0x0 0x0 0x0 0x7 0xa 0x3 0x4 0x0 0x2a 0x0 0x0[0m
[36m2025-08-04 20:12:58.126 DEBUG (SyncWorker_3) [pymodbus.logging] decoded PDU function_code(3 sub -1) -> ReadHoldingRegistersResponse(dev_id=0, transaction_id=0, address=0, count=0, bits=[], registers=[42, 0], status=1) [0m
[36m2025-08-04 20:12:58.126 DEBUG (SyncWorker_3) [pymodbus.logging] Frame advanced, resetting header!![0m
[36m2025-08-04 20:12:58.126 DEBUG (SyncWorker_3) [custom_components.thessla_green_modbus.device_scanner] Found holding register supply_intensity_manual (0x1075) = 42[0m
[36m2025-08-04 20:12:58.126 DEBUG (SyncWorker_3) [custom_components.thessla_green_modbus.device_scanner] Found holding register exhaust_intensity_manual (0x1076) = 0[0m
[36m2025-08-04 20:12:58.316 DEBUG (SyncWorker_3) [pymodbus.logging] Processing: 0x0 0x1e 0x0 0x0 0x0 0x5 0xa 0x3 0x2 0x0 0x0[0m
[36m2025-08-04 20:12:58.317 DEBUG (SyncWorker_3) [pymodbus.logging] decoded PDU function_code(3 sub -1) -> ReadHoldingRegistersResponse(dev_id=0, transaction_id=0, address=0, count=0, bits=[], registers=[0], status=1) [0m
[36m2025-08-04 20:12:58.317 DEBUG (SyncWorker_3) [pymodbus.logging] Frame advanced, resetting header!![0m
[36m2025-08-04 20:12:58.317 DEBUG (SyncWorker_3) [custom_components.thessla_green_modbus.device_scanner] Found holding register target_temperature (0x10D0) = 0[0m
[36m2025-08-04 20:12:58.317 DEBUG (SyncWorker_3) [custom_components.thessla_green_modbus.device_scanner] Scanning holding register group: special_functions[0m
[36m2025-08-04 20:12:58.513 DEBUG (SyncWorker_3) [pymodbus.logging] Processing: 0x0 0x1f 0x0 0x0 0x0 0xb 0xa 0x3 0x8 0x0 0x64 0x0 0x64 0x0 0x15 0x0 0x64[0m
[36m2025-08-04 20:12:58.513 DEBUG (SyncWorker_3) [pymodbus.logging] decoded PDU function_code(3 sub -1) -> ReadHoldingRegistersResponse(dev_id=0, transaction_id=0, address=0, count=0, bits=[], registers=[100, 100, 21, 100], status=1) [0m
[36m2025-08-04 20:12:58.513 DEBUG (SyncWorker_3) [pymodbus.logging] Frame advanced, resetting header!![0m
[36m2025-08-04 20:12:58.514 DEBUG (SyncWorker_3) [custom_components.thessla_green_modbus.device_scanner] Found holding register special_function_timer (0x1083) = 100[0m
[36m2025-08-04 20:12:58.514 DEBUG (SyncWorker_3) [custom_components.thessla_green_modbus.device_scanner] Found holding register okap_timer (0x1084) = 21[0m
[36m2025-08-04 20:12:58.514 DEBUG (SyncWorker_3) [custom_components.thessla_green_modbus.device_scanner] Found holding register fireplace_timer (0x1085) = 100[0m
[36m2025-08-04 20:12:58.514 DEBUG (SyncWorker_3) [custom_components.thessla_green_modbus.device_scanner] Scanning holding register group: gwc_system[0m
[36m2025-08-04 20:12:58.694 DEBUG (SyncWorker_3) [pymodbus.logging] Processing: 0x0 0x20 0x0 0x0 0x0 0x9 0xa 0x3 0x6 0x0 0x0 0x0 0xa 0x0 0x32[0m
[36m2025-08-04 20:12:58.695 DEBUG (SyncWorker_3) [pymodbus.logging] decoded PDU function_code(3 sub -1) -> ReadHoldingRegistersResponse(dev_id=0, transaction_id=0, address=0, count=0, bits=[], registers=[0, 10, 50], status=1) [0m
[36m2025-08-04 20:12:58.695 DEBUG (SyncWorker_3) [pymodbus.logging] Frame advanced, resetting header!![0m
[36m2025-08-04 20:12:58.695 DEBUG (SyncWorker_3) [custom_components.thessla_green_modbus.device_scanner] Found holding register gwc_mode (0x10A0) = 0[0m
[36m2025-08-04 20:12:58.695 DEBUG (SyncWorker_3) [custom_components.thessla_green_modbus.device_scanner] Found holding register gwc_season_mode (0x10A1) = 10[0m
[36m2025-08-04 20:12:58.695 DEBUG (SyncWorker_3) [custom_components.thessla_green_modbus.device_scanner] Found holding register gwc_temperature_threshold (0x10A2) = 50[0m
[36m2025-08-04 20:12:58.695 DEBUG (SyncWorker_3) [custom_components.thessla_green_modbus.device_scanner] Scanning holding register group: bypass_system[0m
[36m2025-08-04 20:12:58.881 DEBUG (SyncWorker_3) [pymodbus.logging] Processing: 0x0 0x21 0x0 0x0 0x0 0x7 0xa 0x3 0x4 0x0 0x0 0x0 0x14[0m
[36m2025-08-04 20:12:58.882 DEBUG (SyncWorker_3) [pymodbus.logging] decoded PDU function_code(3 sub -1) -> ReadHoldingRegistersResponse(dev_id=0, transaction_id=0, address=0, count=0, bits=[], registers=[0, 20], status=1) [0m
[36m2025-08-04 20:12:58.882 DEBUG (SyncWorker_3) [pymodbus.logging] Frame advanced, resetting header!![0m
[36m2025-08-04 20:12:58.882 DEBUG (SyncWorker_3) [custom_components.thessla_green_modbus.device_scanner] Found holding register bypass_mode (0x10E0) = 0[0m
[36m2025-08-04 20:12:58.882 DEBUG (SyncWorker_3) [custom_components.thessla_green_modbus.device_scanner] Found holding register bypass_temperature_threshold (0x10E1) = 20[0m
[36m2025-08-04 20:12:58.882 DEBUG (SyncWorker_3) [custom_components.thessla_green_modbus.device_scanner] Scanning holding register group: system_flags[0m
[36m2025-08-04 20:12:59.066 DEBUG (SyncWorker_3) [pymodbus.logging] Processing: 0x0 0x22 0x0 0x0 0x0 0x7 0xa 0x3 0x4 0x0 0x0 0x0 0x0[0m
[36m2025-08-04 20:12:59.066 DEBUG (SyncWorker_3) [pymodbus.logging] decoded PDU function_code(3 sub -1) -> ReadHoldingRegistersResponse(dev_id=0, transaction_id=0, address=0, count=0, bits=[], registers=[0, 0], status=1) [0m
[36m2025-08-04 20:12:59.066 DEBUG (SyncWorker_3) [pymodbus.logging] Frame advanced, resetting header!![0m
[36m2025-08-04 20:12:59.067 DEBUG (SyncWorker_3) [custom_components.thessla_green_modbus.device_scanner] Found holding register alarm_flag (0x2000) = 0[0m
[36m2025-08-04 20:12:59.067 DEBUG (SyncWorker_3) [custom_components.thessla_green_modbus.device_scanner] Found holding register error_flag (0x2001) = 0[0m
[36m2025-08-04 20:12:59.241 DEBUG (SyncWorker_3) [pymodbus.logging] Processing: 0x0 0x23 0x0 0x0 0x0 0x5 0xa 0x1 0x2 0x52 0x0[0m
[36m2025-08-04 20:12:59.241 DEBUG (SyncWorker_3) [pymodbus.logging] decoded PDU function_code(1 sub -1) -> ReadCoilsResponse(dev_id=0, transaction_id=0, address=0, count=0, bits=[False, True, False, False, True, False, True, False, False, False, False, False, False, False, False, False], registers=[], status=1) [0m
[36m2025-08-04 20:12:59.241 DEBUG (SyncWorker_3) [pymodbus.logging] Frame advanced, resetting header!![0m
[36m2025-08-04 20:12:59.241 DEBUG (SyncWorker_3) [custom_components.thessla_green_modbus.device_scanner] Found coil duct_water_heater_pump (0x0005) = False[0m
[36m2025-08-04 20:12:59.241 DEBUG (SyncWorker_3) [custom_components.thessla_green_modbus.device_scanner] Found coil bypass (0x0009) = True[0m
[36m2025-08-04 20:12:59.242 DEBUG (SyncWorker_3) [custom_components.thessla_green_modbus.device_scanner] Found coil info (0x000A) = False[0m
[36m2025-08-04 20:12:59.242 DEBUG (SyncWorker_3) [custom_components.thessla_green_modbus.device_scanner] Found coil power_supply_fans (0x000B) = True[0m
[36m2025-08-04 20:12:59.242 DEBUG (SyncWorker_3) [custom_components.thessla_green_modbus.device_scanner] Found coil heating_cable (0x000C) = False[0m
[36m2025-08-04 20:12:59.242 DEBUG (SyncWorker_3) [custom_components.thessla_green_modbus.device_scanner] Found coil work_permit (0x000D) = False[0m
[36m2025-08-04 20:12:59.242 DEBUG (SyncWorker_3) [custom_components.thessla_green_modbus.device_scanner] Found coil gwc (0x000E) = False[0m
[36m2025-08-04 20:12:59.242 DEBUG (SyncWorker_3) [custom_components.thessla_green_modbus.device_scanner] Found coil hood (0x000F) = False[0m
[36m2025-08-04 20:12:59.423 DEBUG (SyncWorker_3) [pymodbus.logging] Processing: 0x0 0x24 0x0 0x0 0x0 0x6 0xa 0x2 0x3 0x1c 0xc3 0x3[0m
[36m2025-08-04 20:12:59.423 DEBUG (SyncWorker_3) [pymodbus.logging] decoded PDU function_code(2 sub -1) -> ReadDiscreteInputsResponse(dev_id=0, transaction_id=0, address=0, count=0, bits=[False, False, True, True, True, False, False, False, True, True, False, False, False, False, True, True, True, True, False, False, False, False, False, False], registers=[], status=1) [0m
[36m2025-08-04 20:12:59.424 DEBUG (SyncWorker_3) [pymodbus.logging] Frame advanced, resetting header!![0m
[36m2025-08-04 20:12:59.424 DEBUG (SyncWorker_3) [custom_components.thessla_green_modbus.device_scanner] Found discrete input duct_heater_protection (0x0000) = False[0m
[36m2025-08-04 20:12:59.424 DEBUG (SyncWorker_3) [custom_components.thessla_green_modbus.device_scanner] Found discrete input expansion (0x0001) = False[0m
[36m2025-08-04 20:12:59.424 DEBUG (SyncWorker_3) [custom_components.thessla_green_modbus.device_scanner] Found discrete input dp_duct_filter_overflow (0x0003) = True[0m
[36m2025-08-04 20:12:59.424 DEBUG (SyncWorker_3) [custom_components.thessla_green_modbus.device_scanner] Found discrete input hood_input (0x0004) = True[0m
[36m2025-08-04 20:12:59.424 DEBUG (SyncWorker_3) [custom_components.thessla_green_modbus.device_scanner] Found discrete input contamination_sensor (0x0005) = False[0m
[36m2025-08-04 20:12:59.424 DEBUG (SyncWorker_3) [custom_components.thessla_green_modbus.device_scanner] Found discrete input airing_sensor (0x0006) = False[0m
[36m2025-08-04 20:12:59.424 DEBUG (SyncWorker_3) [custom_components.thessla_green_modbus.device_scanner] Found discrete input airing_switch (0x0007) = False[0m
[36m2025-08-04 20:12:59.424 DEBUG (SyncWorker_3) [custom_components.thessla_green_modbus.device_scanner] Found discrete input airing_mini (0x000A) = False[0m
[36m2025-08-04 20:12:59.424 DEBUG (SyncWorker_3) [custom_components.thessla_green_modbus.device_scanner] Found discrete input fan_speed_3 (0x000B) = False[0m
[36m2025-08-04 20:12:59.424 DEBUG (SyncWorker_3) [custom_components.thessla_green_modbus.device_scanner] Found discrete input fan_speed_2 (0x000C) = False[0m
[36m2025-08-04 20:12:59.424 DEBUG (SyncWorker_3) [custom_components.thessla_green_modbus.device_scanner] Found discrete input fan_speed_1 (0x000D) = False[0m
[36m2025-08-04 20:12:59.424 DEBUG (SyncWorker_3) [custom_components.thessla_green_modbus.device_scanner] Found discrete input fireplace (0x000E) = True[0m
[36m2025-08-04 20:12:59.424 DEBUG (SyncWorker_3) [custom_components.thessla_green_modbus.device_scanner] Found discrete input fire_alarm (0x000F) = True[0m
[36m2025-08-04 20:12:59.425 DEBUG (SyncWorker_3) [custom_components.thessla_green_modbus.device_scanner] Found discrete input dp_ahu_filter_overflow (0x0012) = False[0m
[36m2025-08-04 20:12:59.425 DEBUG (SyncWorker_3) [custom_components.thessla_green_modbus.device_scanner] Found discrete input ahu_filter_protection (0x0013) = False[0m
[36m2025-08-04 20:12:59.425 DEBUG (SyncWorker_3) [custom_components.thessla_green_modbus.device_scanner] Found discrete input empty_house (0x0015) = False[0m
[32m2025-08-04 20:12:59.425 INFO (SyncWorker_3) [custom_components.thessla_green_modbus.device_scanner] Detected device model: AirPack Home Energy+ with CF and GWC[0m
[32m2025-08-04 20:12:59.425 INFO (SyncWorker_3) [custom_components.thessla_green_modbus.device_scanner] OPTIMIZED scan complete: 15 input, 17 holding, 8 coils, 16 discrete (61.1% success, 16.63s)[0m
[32m2025-08-04 20:12:59.426 INFO (MainThread) [custom_components.thessla_green_modbus.coordinator] Optimized device scan successful. Found 4 register types, pre-computed 4 read groups[0m
[36m2025-08-04 20:12:59.435 DEBUG (SyncWorker_6) [pymodbus.logging] Connection to Modbus server established. Socket ('192.168.1.83', 44148)[0m
[33m2025-08-04 20:13:00.725 WARNING (MainThread) [homeassistant.components.esphome.manager] Sensory: [W][component:307]: dallas_temp.sensor cleared Warning flag[0m
[33m2025-08-04 20:13:01.507 WARNING (MainThread) [homeassistant.components.esphome.manager] Sensory: [W][component:279]: dallas_temp.sensor set Warning flag: scratch pad checksum invalid[0m
[36m2025-08-04 20:13:09.608 DEBUG (SyncWorker_6) [pymodbus.logging] Processing: 0x0 0x1 0x0 0x0 0x0 0x11 0xa 0x4 0xe 0x0 0xd4 0x0 0xdd 0x1 0x3 0x0 0xd9 0x80 0x0 0x80 0x0 0x1 0x2d[0m
[36m2025-08-04 20:13:09.608 DEBUG (SyncWorker_6) [pymodbus.logging] decoded PDU function_code(4 sub -1) -> ReadInputRegistersResponse(dev_id=0, transaction_id=0, address=0, count=0, bits=[], registers=[212, 221, 259, 217, 32768, 32768, 301], status=1) [0m
[36m2025-08-04 20:13:09.608 DEBUG (SyncWorker_6) [pymodbus.logging] Frame advanced, resetting header!![0m
[36m2025-08-04 20:13:09.782 DEBUG (SyncWorker_6) [pymodbus.logging] Processing: 0x0 0x2 0x0 0x0 0x0 0xb 0xa 0x4 0x8 0x0 0x1 0x0 0x1e 0x0 0x1e 0x0 0x63[0m
[36m2025-08-04 20:13:09.782 DEBUG (SyncWorker_6) [pymodbus.logging] decoded PDU function_code(4 sub -1) -> ReadInputRegistersResponse(dev_id=0, transaction_id=0, address=0, count=0, bits=[], registers=[1, 30, 30, 99], status=1) [0m
[36m2025-08-04 20:13:09.783 DEBUG (SyncWorker_6) [pymodbus.logging] Frame advanced, resetting header!![0m
[36m2025-08-04 20:13:09.961 DEBUG (SyncWorker_6) [pymodbus.logging] Processing: 0x0 0x3 0x0 0x0 0x0 0x9 0xa 0x3 0x6 0x0 0x1 0x0 0x0 0x0 0x1e[0m
[36m2025-08-04 20:13:09.961 DEBUG (SyncWorker_6) [pymodbus.logging] decoded PDU function_code(3 sub -1) -> ReadHoldingRegistersResponse(dev_id=0, transaction_id=0, address=0, count=0, bits=[], registers=[1, 0, 30], status=1) [0m
[36m2025-08-04 20:13:09.962 DEBUG (SyncWorker_6) [pymodbus.logging] Frame advanced, resetting header!![0m
[36m2025-08-04 20:13:10.147 DEBUG (SyncWorker_6) [pymodbus.logging] Processing: 0x0 0x4 0x0 0x0 0x0 0x5 0xa 0x3 0x2 0x0 0x0[0m
[36m2025-08-04 20:13:10.147 DEBUG (SyncWorker_6) [pymodbus.logging] decoded PDU function_code(3 sub -1) -> ReadHoldingRegistersResponse(dev_id=0, transaction_id=0, address=0, count=0, bits=[], registers=[0], status=1) [0m
[36m2025-08-04 20:13:10.147 DEBUG (SyncWorker_6) [pymodbus.logging] Frame advanced, resetting header!![0m
[36m2025-08-04 20:13:10.338 DEBUG (SyncWorker_6) [pymodbus.logging] Processing: 0x0 0x5 0x0 0x0 0x0 0x5 0xa 0x3 0x2 0x0 0x2[0m
[36m2025-08-04 20:13:10.339 DEBUG (SyncWorker_6) [pymodbus.logging] decoded PDU function_code(3 sub -1) -> ReadHoldingRegistersResponse(dev_id=0, transaction_id=0, address=0, count=0, bits=[], registers=[2], status=1) [0m
[36m2025-08-04 20:13:10.339 DEBUG (SyncWorker_6) [pymodbus.logging] Frame advanced, resetting header!![0m
[36m2025-08-04 20:13:10.520 DEBUG (SyncWorker_6) [pymodbus.logging] Processing: 0x0 0x6 0x0 0x0 0x0 0x5 0xa 0x3 0x2 0x0 0x1[0m
[36m2025-08-04 20:13:10.521 DEBUG (SyncWorker_6) [pymodbus.logging] decoded PDU function_code(3 sub -1) -> ReadHoldingRegistersResponse(dev_id=0, transaction_id=0, address=0, count=0, bits=[], registers=[1], status=1) [0m
[36m2025-08-04 20:13:10.521 DEBUG (SyncWorker_6) [pymodbus.logging] Frame advanced, resetting header!![0m
[36m2025-08-04 20:13:10.718 DEBUG (SyncWorker_6) [pymodbus.logging] Processing: 0x0 0x7 0x0 0x0 0x0 0x7 0xa 0x3 0x4 0x0 0x0 0x0 0x0[0m
[36m2025-08-04 20:13:10.718 DEBUG (SyncWorker_6) [pymodbus.logging] decoded PDU function_code(3 sub -1) -> ReadHoldingRegistersResponse(dev_id=0, transaction_id=0, address=0, count=0, bits=[], registers=[0, 0], status=1) [0m
[36m2025-08-04 20:13:10.718 DEBUG (SyncWorker_6) [pymodbus.logging] Frame advanced, resetting header!![0m
[36m2025-08-04 20:13:10.894 DEBUG (SyncWorker_6) [pymodbus.logging] Processing: 0x0 0x8 0x0 0x0 0x0 0x5 0xa 0x1 0x2 0x52 0x0[0m
[36m2025-08-04 20:13:10.894 DEBUG (SyncWorker_6) [pymodbus.logging] decoded PDU function_code(1 sub -1) -> ReadCoilsResponse(dev_id=0, transaction_id=0, address=0, count=0, bits=[False, True, False, False, True, False, True, False, False, False, False, False, False, False, False, False], registers=[], status=1) [0m
[36m2025-08-04 20:13:10.894 DEBUG (SyncWorker_6) [pymodbus.logging] Frame advanced, resetting header!![0m
[36m2025-08-04 20:13:11.075 DEBUG (SyncWorker_6) [pymodbus.logging] Processing: 0x0 0x9 0x0 0x0 0x0 0x6 0xa 0x2 0x3 0x1c 0xc3 0x3[0m
[36m2025-08-04 20:13:11.075 DEBUG (SyncWorker_6) [pymodbus.logging] decoded PDU function_code(2 sub -1) -> ReadDiscreteInputsResponse(dev_id=0, transaction_id=0, address=0, count=0, bits=[False, False, True, True, True, False, False, False, True, True, False, False, False, False, True, True, True, True, False, False, False, False, False, False], registers=[], status=1) [0m
[36m2025-08-04 20:13:11.075 DEBUG (SyncWorker_6) [pymodbus.logging] Frame advanced, resetting header!![0m
[36m2025-08-04 20:13:11.075 DEBUG (SyncWorker_6) [custom_components.thessla_green_modbus.coordinator] Optimized data update complete: 9 groups read, 100.0% success rate[0m
[36m2025-08-04 20:13:11.088 DEBUG (MainThread) [custom_components.thessla_green_modbus.coordinator] Finished fetching thessla_green_modbus data in 11.662 seconds (success: True)[0m
[32m2025-08-04 20:13:11.089 INFO (MainThread) [custom_components.thessla_green_modbus] ENHANCED setup successful! Device: ThesslaGreen AirPack, Registers: 56, Capabilities: 15[0m
[36m2025-08-04 20:13:11.144 DEBUG (MainThread) [custom_components.thessla_green_modbus.sensor] Adding 11 sensor entities[0m
[36m2025-08-04 20:13:11.159 DEBUG (MainThread) [custom_components.thessla_green_modbus.binary_sensor] Adding 21 binary sensor entities[0m
[36m2025-08-04 20:13:11.185 DEBUG (MainThread) [custom_components.thessla_green_modbus.select] Adding 4 select entities[0m
[36m2025-08-04 20:13:11.190 DEBUG (MainThread) [custom_components.thessla_green_modbus.number] Adding 1 number entities[0m
[36m2025-08-04 20:13:11.191 DEBUG (MainThread) [custom_components.thessla_green_modbus.switch] Adding 1 switch entities[0m
[36m2025-08-04 20:13:11.194 DEBUG (MainThread) [custom_components.thessla_green_modbus.climate] Adding 1 enhanced climate entities[0m
[36m2025-08-04 20:13:11.199 DEBUG (MainThread) [custom_components.thessla_green_modbus] ThesslaGreen services registered[0m
[33m2025-08-04 20:13:32.882 WARNING (MainThread) [homeassistant.helpers.service] Referenced entities number.rekuperator_predkosc are missing or not currently available[0m
[33m2025-08-04 20:13:32.886 WARNING (MainThread) [homeassistant.helpers.service] Referenced entities number.rekuperator_predkosc are missing or not currently available[0m
[36m2025-08-04 20:13:41.217 DEBUG (SyncWorker_5) [pymodbus.logging] Connection to Modbus server established. Socket ('192.168.1.83', 50414)[0m
[36m2025-08-04 20:13:51.382 DEBUG (SyncWorker_5) [pymodbus.logging] Processing: 0x0 0x1 0x0 0x0 0x0 0x11 0xa 0x4 0xe 0x0 0xd3 0x0 0xdd 0x1 0x3 0x0 0xd8 0x80 0x0 0x80 0x0 0x1 0x2d[0m
[36m2025-08-04 20:13:51.382 DEBUG (SyncWorker_5) [pymodbus.logging] decoded PDU function_code(4 sub -1) -> ReadInputRegistersResponse(dev_id=0, transaction_id=0, address=0, count=0, bits=[], registers=[211, 221, 259, 216, 32768, 32768, 301], status=1) [0m
[36m2025-08-04 20:13:51.382 DEBUG (SyncWorker_5) [pymodbus.logging] Frame advanced, resetting header!![0m
[36m2025-08-04 20:13:51.566 DEBUG (SyncWorker_5) [pymodbus.logging] Processing: 0x0 0x2 0x0 0x0 0x0 0xb 0xa 0x4 0x8 0x0 0x1 0x0 0x1e 0x0 0x1e 0x0 0x63[0m
[36m2025-08-04 20:13:51.567 DEBUG (SyncWorker_5) [pymodbus.logging] decoded PDU function_code(4 sub -1) -> ReadInputRegistersResponse(dev_id=0, transaction_id=0, address=0, count=0, bits=[], registers=[1, 30, 30, 99], status=1) [0m
[36m2025-08-04 20:13:51.567 DEBUG (SyncWorker_5) [pymodbus.logging] Frame advanced, resetting header!![0m
[36m2025-08-04 20:13:51.968 DEBUG (SyncWorker_5) [pymodbus.logging] Processing: 0x0 0x3 0x0 0x0 0x0 0x9 0xa 0x3 0x6 0x0 0x1 0x0 0x0 0x0 0x1e[0m
[36m2025-08-04 20:13:51.968 DEBUG (SyncWorker_5) [pymodbus.logging] decoded PDU function_code(3 sub -1) -> ReadHoldingRegistersResponse(dev_id=0, transaction_id=0, address=0, count=0, bits=[], registers=[1, 0, 30], status=1) [0m
[36m2025-08-04 20:13:51.968 DEBUG (SyncWorker_5) [pymodbus.logging] Frame advanced, resetting header!![0m
[36m2025-08-04 20:13:52.124 DEBUG (SyncWorker_5) [pymodbus.logging] Processing: 0x0 0x4 0x0 0x0 0x0 0x5 0xa 0x3 0x2 0x0 0x0[0m
[36m2025-08-04 20:13:52.125 DEBUG (SyncWorker_5) [pymodbus.logging] decoded PDU function_code(3 sub -1) -> ReadHoldingRegistersResponse(dev_id=0, transaction_id=0, address=0, count=0, bits=[], registers=[0], status=1) [0m
[36m2025-08-04 20:13:52.125 DEBUG (SyncWorker_5) [pymodbus.logging] Frame advanced, resetting header!![0m
[36m2025-08-04 20:13:52.307 DEBUG (SyncWorker_5) [pymodbus.logging] Processing: 0x0 0x5 0x0 0x0 0x0 0x5 0xa 0x3 0x2 0x0 0x2[0m
[36m2025-08-04 20:13:52.308 DEBUG (SyncWorker_5) [pymodbus.logging] decoded PDU function_code(3 sub -1) -> ReadHoldingRegistersResponse(dev_id=0, transaction_id=0, address=0, count=0, bits=[], registers=[2], status=1) [0m
[36m2025-08-04 20:13:52.308 DEBUG (SyncWorker_5) [pymodbus.logging] Frame advanced, resetting header!![0m
[36m2025-08-04 20:13:52.486 DEBUG (SyncWorker_5) [pymodbus.logging] Processing: 0x0 0x6 0x0 0x0 0x0 0x5 0xa 0x3 0x2 0x0 0x1[0m
[36m2025-08-04 20:13:52.487 DEBUG (SyncWorker_5) [pymodbus.logging] decoded PDU function_code(3 sub -1) -> ReadHoldingRegistersResponse(dev_id=0, transaction_id=0, address=0, count=0, bits=[], registers=[1], status=1) [0m
[36m2025-08-04 20:13:52.487 DEBUG (SyncWorker_5) [pymodbus.logging] Frame advanced, resetting header!![0m
[36m2025-08-04 20:13:52.672 DEBUG (SyncWorker_5) [pymodbus.logging] Processing: 0x0 0x7 0x0 0x0 0x0 0x7 0xa 0x3 0x4 0x0 0x0 0x0 0x0[0m
[36m2025-08-04 20:13:52.672 DEBUG (SyncWorker_5) [pymodbus.logging] decoded PDU function_code(3 sub -1) -> ReadHoldingRegistersResponse(dev_id=0, transaction_id=0, address=0, count=0, bits=[], registers=[0, 0], status=1) [0m
[36m2025-08-04 20:13:52.672 DEBUG (SyncWorker_5) [pymodbus.logging] Frame advanced, resetting header!![0m
[36m2025-08-04 20:13:52.848 DEBUG (SyncWorker_5) [pymodbus.logging] Processing: 0x0 0x8 0x0 0x0 0x0 0x5 0xa 0x1 0x2 0x52 0x0[0m
[36m2025-08-04 20:13:52.849 DEBUG (SyncWorker_5) [pymodbus.logging] decoded PDU function_code(1 sub -1) -> ReadCoilsResponse(dev_id=0, transaction_id=0, address=0, count=0, bits=[False, True, False, False, True, False, True, False, False, False, False, False, False, False, False, False], registers=[], status=1) [0m
[36m2025-08-04 20:13:52.849 DEBUG (SyncWorker_5) [pymodbus.logging] Frame advanced, resetting header!![0m
[36m2025-08-04 20:13:53.040 DEBUG (SyncWorker_5) [pymodbus.logging] Processing: 0x0 0x9 0x0 0x0 0x0 0x6 0xa 0x2 0x3 0x1c 0xc3 0x1[0m
[36m2025-08-04 20:13:53.041 DEBUG (SyncWorker_5) [pymodbus.logging] decoded PDU function_code(2 sub -1) -> ReadDiscreteInputsResponse(dev_id=0, transaction_id=0, address=0, count=0, bits=[False, False, True, True, True, False, False, False, True, True, False, False, False, False, True, True, True, False, False, False, False, False, False, False], registers=[], status=1) [0m
[36m2025-08-04 20:13:53.041 DEBUG (SyncWorker_5) [pymodbus.logging] Frame advanced, resetting header!![0m
[36m2025-08-04 20:13:53.041 DEBUG (SyncWorker_5) [custom_components.thessla_green_modbus.coordinator] Optimized data update complete: 9 groups read, 100.0% success rate[0m
[36m2025-08-04 20:13:53.053 DEBUG (MainThread) [custom_components.thessla_green_modbus.coordinator] Finished fetching thessla_green_modbus data in 11.840 seconds (success: True)[0m
[33m2025-08-04 20:14:00.766 WARNING (MainThread) [homeassistant.components.esphome.manager] Sensory: [W][component:307]: dallas_temp.sensor cleared Warning flag[0m
[33m2025-08-04 20:14:01.540 WARNING (MainThread) [homeassistant.components.esphome.manager] Sensory: [W][component:279]: dallas_temp.sensor set Warning flag: scratch pad checksum invalid[0m
[36m2025-08-04 20:14:23.217 DEBUG (SyncWorker_5) [pymodbus.logging] Connection to Modbus server established. Socket ('192.168.1.83', 36258)[0m
[33m2025-08-04 20:14:32.883 WARNING (MainThread) [homeassistant.helpers.service] Referenced entities number.rekuperator_predkosc are missing or not currently available[0m
[33m2025-08-04 20:14:32.884 WARNING (MainThread) [homeassistant.helpers.service] Referenced entities number.rekuperator_predkosc are missing or not currently available[0m
[36m2025-08-04 20:14:33.360 DEBUG (SyncWorker_5) [pymodbus.logging] Processing: 0x0 0x1 0x0 0x0 0x0 0x11 0xa 0x4 0xe 0x0 0xd4 0x0 0xdd 0x1 0x3 0x0 0xd9 0x80 0x0 0x80 0x0 0x1 0x2d[0m
[36m2025-08-04 20:14:33.360 DEBUG (SyncWorker_5) [pymodbus.logging] decoded PDU function_code(4 sub -1) -> ReadInputRegistersResponse(dev_id=0, transaction_id=0, address=0, count=0, bits=[], registers=[212, 221, 259, 217, 32768, 32768, 301], status=1) [0m
[36m2025-08-04 20:14:33.361 DEBUG (SyncWorker_5) [pymodbus.logging] Frame advanced, resetting header!![0m
[36m2025-08-04 20:14:33.544 DEBUG (SyncWorker_5) [pymodbus.logging] Processing: 0x0 0x2 0x0 0x0 0x0 0xb 0xa 0x4 0x8 0x0 0x1 0x0 0x1e 0x0 0x1e 0x0 0x63[0m
[36m2025-08-04 20:14:33.544 DEBUG (SyncWorker_5) [pymodbus.logging] decoded PDU function_code(4 sub -1) -> ReadInputRegistersResponse(dev_id=0, transaction_id=0, address=0, count=0, bits=[], registers=[1, 30, 30, 99], status=1) [0m
[36m2025-08-04 20:14:33.544 DEBUG (SyncWorker_5) [pymodbus.logging] Frame advanced, resetting header!![0m
[36m2025-08-04 20:14:33.723 DEBUG (SyncWorker_5) [pymodbus.logging] Processing: 0x0 0x3 0x0 0x0 0x0 0x9 0xa 0x3 0x6 0x0 0x1 0x0 0x0 0x0 0x1e[0m
[36m2025-08-04 20:14:33.724 DEBUG (SyncWorker_5) [pymodbus.logging] decoded PDU function_code(3 sub -1) -> ReadHoldingRegistersResponse(dev_id=0, transaction_id=0, address=0, count=0, bits=[], registers=[1, 0, 30], status=1) [0m
[36m2025-08-04 20:14:33.724 DEBUG (SyncWorker_5) [pymodbus.logging] Frame advanced, resetting header!![0m
[36m2025-08-04 20:14:33.899 DEBUG (SyncWorker_5) [pymodbus.logging] Processing: 0x0 0x4 0x0 0x0 0x0 0x5 0xa 0x3 0x2 0x0 0x0[0m
[36m2025-08-04 20:14:33.900 DEBUG (SyncWorker_5) [pymodbus.logging] decoded PDU function_code(3 sub -1) -> ReadHoldingRegistersResponse(dev_id=0, transaction_id=0, address=0, count=0, bits=[], registers=[0], status=1) [0m
[36m2025-08-04 20:14:33.900 DEBUG (SyncWorker_5) [pymodbus.logging] Frame advanced, resetting header!![0m
[36m2025-08-04 20:14:34.079 DEBUG (SyncWorker_5) [pymodbus.logging] Processing: 0x0 0x5 0x0 0x0 0x0 0x5 0xa 0x3 0x2 0x0 0x2[0m
[36m2025-08-04 20:14:34.080 DEBUG (SyncWorker_5) [pymodbus.logging] decoded PDU function_code(3 sub -1) -> ReadHoldingRegistersResponse(dev_id=0, transaction_id=0, address=0, count=0, bits=[], registers=[2], status=1) [0m
[36m2025-08-04 20:14:34.080 DEBUG (SyncWorker_5) [pymodbus.logging] Frame advanced, resetting header!![0m
[36m2025-08-04 20:14:34.261 DEBUG (SyncWorker_5) [pymodbus.logging] Processing: 0x0 0x6 0x0 0x0 0x0 0x5 0xa 0x3 0x2 0x0 0x1[0m
[36m2025-08-04 20:14:34.261 DEBUG (SyncWorker_5) [pymodbus.logging] decoded PDU function_code(3 sub -1) -> ReadHoldingRegistersResponse(dev_id=0, transaction_id=0, address=0, count=0, bits=[], registers=[1], status=1) [0m
[36m2025-08-04 20:14:34.261 DEBUG (SyncWorker_5) [pymodbus.logging] Frame advanced, resetting header!![0m
[36m2025-08-04 20:14:34.456 DEBUG (SyncWorker_5) [pymodbus.logging] Processing: 0x0 0x7 0x0 0x0 0x0 0x7 0xa 0x3 0x4 0x0 0x0 0x0 0x0[0m
[36m2025-08-04 20:14:34.456 DEBUG (SyncWorker_5) [pymodbus.logging] decoded PDU function_code(3 sub -1) -> ReadHoldingRegistersResponse(dev_id=0, transaction_id=0, address=0, count=0, bits=[], registers=[0, 0], status=1) [0m
[36m2025-08-04 20:14:34.456 DEBUG (SyncWorker_5) [pymodbus.logging] Frame advanced, resetting header!![0m
[36m2025-08-04 20:14:34.643 DEBUG (SyncWorker_5) [pymodbus.logging] Processing: 0x0 0x8 0x0 0x0 0x0 0x5 0xa 0x1 0x2 0x52 0x0[0m
[36m2025-08-04 20:14:34.643 DEBUG (SyncWorker_5) [pymodbus.logging] decoded PDU function_code(1 sub -1) -> ReadCoilsResponse(dev_id=0, transaction_id=0, address=0, count=0, bits=[False, True, False, False, True, False, True, False, False, False, False, False, False, False, False, False], registers=[], status=1) [0m
[36m2025-08-04 20:14:34.643 DEBUG (SyncWorker_5) [pymodbus.logging] Frame advanced, resetting header!![0m
[36m2025-08-04 20:14:34.826 DEBUG (SyncWorker_5) [pymodbus.logging] Processing: 0x0 0x9 0x0 0x0 0x0 0x6 0xa 0x2 0x3 0x1c 0xc3 0x3[0m
[36m2025-08-04 20:14:34.826 DEBUG (SyncWorker_5) [pymodbus.logging] decoded PDU function_code(2 sub -1) -> ReadDiscreteInputsResponse(dev_id=0, transaction_id=0, address=0, count=0, bits=[False, False, True, True, True, False, False, False, True, True, False, False, False, False, True, True, True, True, False, False, False, False, False, False], registers=[], status=1) [0m
[36m2025-08-04 20:14:34.826 DEBUG (SyncWorker_5) [pymodbus.logging] Frame advanced, resetting header!![0m
[36m2025-08-04 20:14:34.826 DEBUG (SyncWorker_5) [custom_components.thessla_green_modbus.coordinator] Optimized data update complete: 9 groups read, 100.0% success rate[0m
[36m2025-08-04 20:14:34.828 DEBUG (MainThread) [custom_components.thessla_green_modbus.coordinator] Finished fetching thessla_green_modbus data in 11.614 seconds (success: True)[0m
[33m2025-08-04 20:15:00.795 WARNING (MainThread) [homeassistant.components.esphome.manager] Sensory: [W][component:307]: dallas_temp.sensor cleared Warning flag[0m
[33m2025-08-04 20:15:01.573 WARNING (MainThread) [homeassistant.components.esphome.manager] Sensory: [W][component:279]: dallas_temp.sensor set Warning flag: scratch pad checksum invalid[0m
[36m2025-08-04 20:15:04.217 DEBUG (SyncWorker_0) [pymodbus.logging] Connection to Modbus server established. Socket ('192.168.1.83', 33126)[0m
[36m2025-08-04 20:15:14.402 DEBUG (SyncWorker_0) [pymodbus.logging] Processing: 0x0 0x1 0x0 0x0 0x0 0x11 0xa 0x4 0xe 0x0 0xd5 0x0 0xdd 0x1 0x3 0x0 0xda 0x80 0x0 0x80 0x0 0x1 0x2d[0m
[36m2025-08-04 20:15:14.402 DEBUG (SyncWorker_0) [pymodbus.logging] decoded PDU function_code(4 sub -1) -> ReadInputRegistersResponse(dev_id=0, transaction_id=0, address=0, count=0, bits=[], registers=[213, 221, 259, 218, 32768, 32768, 301], status=1) [0m
[36m2025-08-04 20:15:14.402 DEBUG (SyncWorker_0) [pymodbus.logging] Frame advanced, resetting header!![0m
[36m2025-08-04 20:15:14.584 DEBUG (SyncWorker_0) [pymodbus.logging] Processing: 0x0 0x2 0x0 0x0 0x0 0xb 0xa 0x4 0x8 0x0 0x1 0x0 0x1e 0x0 0x1e 0x0 0x63[0m
[36m2025-08-04 20:15:14.584 DEBUG (SyncWorker_0) [pymodbus.logging] decoded PDU function_code(4 sub -1) -> ReadInputRegistersResponse(dev_id=0, transaction_id=0, address=0, count=0, bits=[], registers=[1, 30, 30, 99], status=1) [0m
[36m2025-08-04 20:15:14.584 DEBUG (SyncWorker_0) [pymodbus.logging] Frame advanced, resetting header!![0m
[36m2025-08-04 20:15:14.765 DEBUG (SyncWorker_0) [pymodbus.logging] Processing: 0x0 0x3 0x0 0x0 0x0 0x9 0xa 0x3 0x6 0x0 0x1 0x0 0x0 0x0 0x1e[0m
[36m2025-08-04 20:15:14.766 DEBUG (SyncWorker_0) [pymodbus.logging] decoded PDU function_code(3 sub -1) -> ReadHoldingRegistersResponse(dev_id=0, transaction_id=0, address=0, count=0, bits=[], registers=[1, 0, 30], status=1) [0m
[36m2025-08-04 20:15:14.766 DEBUG (SyncWorker_0) [pymodbus.logging] Frame advanced, resetting header!![0m
[36m2025-08-04 20:15:14.951 DEBUG (SyncWorker_0) [pymodbus.logging] Processing: 0x0 0x4 0x0 0x0 0x0 0x5 0xa 0x3 0x2 0x0 0x0[0m
[36m2025-08-04 20:15:14.951 DEBUG (SyncWorker_0) [pymodbus.logging] decoded PDU function_code(3 sub -1) -> ReadHoldingRegistersResponse(dev_id=0, transaction_id=0, address=0, count=0, bits=[], registers=[0], status=1) [0m
[36m2025-08-04 20:15:14.951 DEBUG (SyncWorker_0) [pymodbus.logging] Frame advanced, resetting header!![0m
[36m2025-08-04 20:15:15.133 DEBUG (SyncWorker_0) [pymodbus.logging] Processing: 0x0 0x5 0x0 0x0 0x0 0x5 0xa 0x3 0x2 0x0 0x2[0m
[36m2025-08-04 20:15:15.133 DEBUG (SyncWorker_0) [pymodbus.logging] decoded PDU function_code(3 sub -1) -> ReadHoldingRegistersResponse(dev_id=0, transaction_id=0, address=0, count=0, bits=[], registers=[2], status=1) [0m
[36m2025-08-04 20:15:15.133 DEBUG (SyncWorker_0) [pymodbus.logging] Frame advanced, resetting header!![0m
[36m2025-08-04 20:15:15.313 DEBUG (SyncWorker_0) [pymodbus.logging] Processing: 0x0 0x6 0x0 0x0 0x0 0x5 0xa 0x3 0x2 0x0 0x1[0m
[36m2025-08-04 20:15:15.313 DEBUG (SyncWorker_0) [pymodbus.logging] decoded PDU function_code(3 sub -1) -> ReadHoldingRegistersResponse(dev_id=0, transaction_id=0, address=0, count=0, bits=[], registers=[1], status=1) [0m
[36m2025-08-04 20:15:15.313 DEBUG (SyncWorker_0) [pymodbus.logging] Frame advanced, resetting header!![0m
[36m2025-08-04 20:15:15.500 DEBUG (SyncWorker_0) [pymodbus.logging] Processing: 0x0 0x7 0x0 0x0 0x0 0x7 0xa 0x3 0x4 0x0 0x0 0x0 0x0[0m
[36m2025-08-04 20:15:15.501 DEBUG (SyncWorker_0) [pymodbus.logging] decoded PDU function_code(3 sub -1) -> ReadHoldingRegistersResponse(dev_id=0, transaction_id=0, address=0, count=0, bits=[], registers=[0, 0], status=1) [0m
[36m2025-08-04 20:15:15.501 DEBUG (SyncWorker_0) [pymodbus.logging] Frame advanced, resetting header!![0m
[36m2025-08-04 20:15:15.675 DEBUG (SyncWorker_0) [pymodbus.logging] Processing: 0x0 0x8 0x0 0x0 0x0 0x5 0xa 0x1 0x2 0x52 0x0[0m
[36m2025-08-04 20:15:15.675 DEBUG (SyncWorker_0) [pymodbus.logging] decoded PDU function_code(1 sub -1) -> ReadCoilsResponse(dev_id=0, transaction_id=0, address=0, count=0, bits=[False, True, False, False, True, False, True, False, False, False, False, False, False, False, False, False], registers=[], status=1) [0m
[36m2025-08-04 20:15:15.675 DEBUG (SyncWorker_0) [pymodbus.logging] Frame advanced, resetting header!![0m
[36m2025-08-04 20:15:15.867 DEBUG (SyncWorker_0) [pymodbus.logging] Processing: 0x0 0x9 0x0 0x0 0x0 0x6 0xa 0x2 0x3 0x1c 0xc3 0x3[0m
[36m2025-08-04 20:15:15.867 DEBUG (SyncWorker_0) [pymodbus.logging] decoded PDU function_code(2 sub -1) -> ReadDiscreteInputsResponse(dev_id=0, transaction_id=0, address=0, count=0, bits=[False, False, True, True, True, False, False, False, True, True, False, False, False, False, True, True, True, True, False, False, False, False, False, False], registers=[], status=1) [0m
[36m2025-08-04 20:15:15.867 DEBUG (SyncWorker_0) [pymodbus.logging] Frame advanced, resetting header!![0m
[36m2025-08-04 20:15:15.867 DEBUG (SyncWorker_0) [custom_components.thessla_green_modbus.coordinator] Optimized data update complete: 9 groups read, 100.0% success rate[0m
[36m2025-08-04 20:15:15.868 DEBUG (MainThread) [custom_components.thessla_green_modbus.coordinator] Finished fetching thessla_green_modbus data in 11.655 seconds (success: True)[0m
[33m2025-08-04 20:15:28.960 WARNING (MainThread) [homeassistant.components.sensor] Entity sensor.ebusd_bai_deactivationstemplimiter (<class 'homeassistant.components.mqtt.sensor.MqttSensor'>) is using native unit of measurement 'None' which is not a valid unit for the device class ('temperature') it is using; expected one of ['K', '°C', '°F']; Please update your configuration if your entity is manually configured, otherwise create a bug report at https://github.com/home-assistant/core/issues?q=is%3Aopen+is%3Aissue+label%3A%22integration%3A+mqtt%22[0m
[33m2025-08-04 20:15:32.887 WARNING (MainThread) [homeassistant.helpers.service] Referenced entities number.rekuperator_predkosc are missing or not currently available[0m
[33m2025-08-04 20:15:32.887 WARNING (MainThread) [homeassistant.helpers.service] Referenced entities number.rekuperator_predkosc are missing or not currently available[0m
[36m2025-08-04 20:15:45.219 DEBUG (SyncWorker_6) [pymodbus.logging] Connection to Modbus server established. Socket ('192.168.1.83', 46788)[0m
[36m2025-08-04 20:15:55.441 DEBUG (SyncWorker_6) [pymodbus.logging] Processing: 0x0 0x1 0x0 0x0 0x0 0x11 0xa 0x4 0xe 0x0 0xd5 0x0 0xdd 0x1 0x3 0x0 0xda 0x80 0x0 0x80 0x0 0x1 0x2d[0m
[36m2025-08-04 20:15:55.441 DEBUG (SyncWorker_6) [pymodbus.logging] decoded PDU function_code(4 sub -1) -> ReadInputRegistersResponse(dev_id=0, transaction_id=0, address=0, count=0, bits=[], registers=[213, 221, 259, 218, 32768, 32768, 301], status=1) [0m
[36m2025-08-04 20:15:55.441 DEBUG (SyncWorker_6) [pymodbus.logging] Frame advanced, resetting header!![0m
[36m2025-08-04 20:15:55.617 DEBUG (SyncWorker_6) [pymodbus.logging] Processing: 0x0 0x2 0x0 0x0 0x0 0xb 0xa 0x4 0x8 0x0 0x1 0x0 0x1e 0x0 0x1e 0x0 0x63[0m
[36m2025-08-04 20:15:55.617 DEBUG (SyncWorker_6) [pymodbus.logging] decoded PDU function_code(4 sub -1) -> ReadInputRegistersResponse(dev_id=0, transaction_id=0, address=0, count=0, bits=[], registers=[1, 30, 30, 99], status=1) [0m
[36m2025-08-04 20:15:55.617 DEBUG (SyncWorker_6) [pymodbus.logging] Frame advanced, resetting header!![0m
[36m2025-08-04 20:15:55.803 DEBUG (SyncWorker_6) [pymodbus.logging] Processing: 0x0 0x3 0x0 0x0 0x0 0x9 0xa 0x3 0x6 0x0 0x1 0x0 0x0 0x0 0x1e[0m
[36m2025-08-04 20:15:55.803 DEBUG (SyncWorker_6) [pymodbus.logging] decoded PDU function_code(3 sub -1) -> ReadHoldingRegistersResponse(dev_id=0, transaction_id=0, address=0, count=0, bits=[], registers=[1, 0, 30], status=1) [0m
[36m2025-08-04 20:15:55.803 DEBUG (SyncWorker_6) [pymodbus.logging] Frame advanced, resetting header!![0m
[36m2025-08-04 20:15:55.998 DEBUG (SyncWorker_6) [pymodbus.logging] Processing: 0x0 0x4 0x0 0x0 0x0 0x5 0xa 0x3 0x2 0x0 0x0[0m
[36m2025-08-04 20:15:55.999 DEBUG (SyncWorker_6) [pymodbus.logging] decoded PDU function_code(3 sub -1) -> ReadHoldingRegistersResponse(dev_id=0, transaction_id=0, address=0, count=0, bits=[], registers=[0], status=1) [0m
[36m2025-08-04 20:15:55.999 DEBUG (SyncWorker_6) [pymodbus.logging] Frame advanced, resetting header!![0m
[36m2025-08-04 20:15:56.173 DEBUG (SyncWorker_6) [pymodbus.logging] Processing: 0x0 0x5 0x0 0x0 0x0 0x5 0xa 0x3 0x2 0x0 0x2[0m
[36m2025-08-04 20:15:56.173 DEBUG (SyncWorker_6) [pymodbus.logging] decoded PDU function_code(3 sub -1) -> ReadHoldingRegistersResponse(dev_id=0, transaction_id=0, address=0, count=0, bits=[], registers=[2], status=1) [0m
[36m2025-08-04 20:15:56.173 DEBUG (SyncWorker_6) [pymodbus.logging] Frame advanced, resetting header!![0m
[36m2025-08-04 20:15:56.363 DEBUG (SyncWorker_6) [pymodbus.logging] Processing: 0x0 0x6 0x0 0x0 0x0 0x5 0xa 0x3 0x2 0x0 0x1[0m
[36m2025-08-04 20:15:56.363 DEBUG (SyncWorker_6) [pymodbus.logging] decoded PDU function_code(3 sub -1) -> ReadHoldingRegistersResponse(dev_id=0, transaction_id=0, address=0, count=0, bits=[], registers=[1], status=1) [0m
[36m2025-08-04 20:15:56.364 DEBUG (SyncWorker_6) [pymodbus.logging] Frame advanced, resetting header!![0m
[36m2025-08-04 20:15:56.550 DEBUG (SyncWorker_6) [pymodbus.logging] Processing: 0x0 0x7 0x0 0x0 0x0 0x7 0xa 0x3 0x4 0x0 0x0 0x0 0x0[0m
[36m2025-08-04 20:15:56.551 DEBUG (SyncWorker_6) [pymodbus.logging] decoded PDU function_code(3 sub -1) -> ReadHoldingRegistersResponse(dev_id=0, transaction_id=0, address=0, count=0, bits=[], registers=[0, 0], status=1) [0m
[36m2025-08-04 20:15:56.551 DEBUG (SyncWorker_6) [pymodbus.logging] Frame advanced, resetting header!![0m
[36m2025-08-04 20:15:56.725 DEBUG (SyncWorker_6) [pymodbus.logging] Processing: 0x0 0x8 0x0 0x0 0x0 0x5 0xa 0x1 0x2 0x52 0x0[0m
[36m2025-08-04 20:15:56.725 DEBUG (SyncWorker_6) [pymodbus.logging] decoded PDU function_code(1 sub -1) -> ReadCoilsResponse(dev_id=0, transaction_id=0, address=0, count=0, bits=[False, True, False, False, True, False, True, False, False, False, False, False, False, False, False, False], registers=[], status=1) [0m
[36m2025-08-04 20:15:56.726 DEBUG (SyncWorker_6) [pymodbus.logging] Frame advanced, resetting header!![0m
[36m2025-08-04 20:15:56.907 DEBUG (SyncWorker_6) [pymodbus.logging] Processing: 0x0 0x9 0x0 0x0 0x0 0x6 0xa 0x2 0x3 0x1c 0xc3 0x3[0m
[36m2025-08-04 20:15:56.907 DEBUG (SyncWorker_6) [pymodbus.logging] decoded PDU function_code(2 sub -1) -> ReadDiscreteInputsResponse(dev_id=0, transaction_id=0, address=0, count=0, bits=[False, False, True, True, True, False, False, False, True, True, False, False, False, False, True, True, True, True, False, False, False, False, False, False], registers=[], status=1) [0m
[36m2025-08-04 20:15:56.908 DEBUG (SyncWorker_6) [pymodbus.logging] Frame advanced, resetting header!![0m
[36m2025-08-04 20:15:56.908 DEBUG (SyncWorker_6) [custom_components.thessla_green_modbus.coordinator] Optimized data update complete: 9 groups read, 100.0% success rate[0m
[36m2025-08-04 20:15:56.909 DEBUG (MainThread) [custom_components.thessla_green_modbus.coordinator] Finished fetching thessla_green_modbus data in 11.695 seconds (success: True)[0m
[33m2025-08-04 20:16:00.796 WARNING (MainThread) [homeassistant.components.esphome.manager] Sensory: [W][component:307]: dallas_temp.sensor cleared Warning flag[0m
[33m2025-08-04 20:16:01.574 WARNING (MainThread) [homeassistant.components.esphome.manager] Sensory: [W][component:279]: dallas_temp.sensor set Warning flag: scratch pad checksum invalid[0m
[36m2025-08-04 20:16:26.219 DEBUG (SyncWorker_4) [pymodbus.logging] Connection to Modbus server established. Socket ('192.168.1.83', 35514)[0m
[33m2025-08-04 20:16:32.884 WARNING (MainThread) [homeassistant.helpers.service] Referenced entities number.rekuperator_predkosc are missing or not currently available[0m
[33m2025-08-04 20:16:32.886 WARNING (MainThread) [homeassistant.helpers.service] Referenced entities number.rekuperator_predkosc are missing or not currently available[0m
[36m2025-08-04 20:16:36.314 DEBUG (SyncWorker_4) [pymodbus.logging] Processing: 0x0 0x1 0x0 0x0 0x0 0x11 0xa 0x4 0xe 0x0 0xd5 0x0 0xdd 0x1 0x3 0x0 0xda 0x80 0x0 0x80 0x0 0x1 0x2d[0m
[36m2025-08-04 20:16:36.314 DEBUG (SyncWorker_4) [pymodbus.logging] decoded PDU function_code(4 sub -1) -> ReadInputRegistersResponse(dev_id=0, transaction_id=0, address=0, count=0, bits=[], registers=[213, 221, 259, 218, 32768, 32768, 301], status=1) [0m
[36m2025-08-04 20:16:36.314 DEBUG (SyncWorker_4) [pymodbus.logging] Frame advanced, resetting header!![0m
[36m2025-08-04 20:16:36.486 DEBUG (SyncWorker_4) [pymodbus.logging] Processing: 0x0 0x2 0x0 0x0 0x0 0xb 0xa 0x4 0x8 0x0 0x1 0x0 0x1e 0x0 0x1e 0x0 0x63[0m
[36m2025-08-04 20:16:36.487 DEBUG (SyncWorker_4) [pymodbus.logging] decoded PDU function_code(4 sub -1) -> ReadInputRegistersResponse(dev_id=0, transaction_id=0, address=0, count=0, bits=[], registers=[1, 30, 30, 99], status=1) [0m
[36m2025-08-04 20:16:36.487 DEBUG (SyncWorker_4) [pymodbus.logging] Frame advanced, resetting header!![0m
[36m2025-08-04 20:16:36.664 DEBUG (SyncWorker_4) [pymodbus.logging] Processing: 0x0 0x3 0x0 0x0 0x0 0x9 0xa 0x3 0x6 0x0 0x1 0x0 0x0 0x0 0x1e[0m
[36m2025-08-04 20:16:36.665 DEBUG (SyncWorker_4) [pymodbus.logging] decoded PDU function_code(3 sub -1) -> ReadHoldingRegistersResponse(dev_id=0, transaction_id=0, address=0, count=0, bits=[], registers=[1, 0, 30], status=1) [0m
[36m2025-08-04 20:16:36.665 DEBUG (SyncWorker_4) [pymodbus.logging] Frame advanced, resetting header!![0m
[36m2025-08-04 20:16:36.840 DEBUG (SyncWorker_4) [pymodbus.logging] Processing: 0x0 0x4 0x0 0x0 0x0 0x5 0xa 0x3 0x2 0x0 0x0[0m
[36m2025-08-04 20:16:36.841 DEBUG (SyncWorker_4) [pymodbus.logging] decoded PDU function_code(3 sub -1) -> ReadHoldingRegistersResponse(dev_id=0, transaction_id=0, address=0, count=0, bits=[], registers=[0], status=1) [0m
[36m2025-08-04 20:16:36.841 DEBUG (SyncWorker_4) [pymodbus.logging] Frame advanced, resetting header!![0m
[36m2025-08-04 20:16:37.022 DEBUG (SyncWorker_4) [pymodbus.logging] Processing: 0x0 0x5 0x0 0x0 0x0 0x5 0xa 0x3 0x2 0x0 0x2[0m
[36m2025-08-04 20:16:37.022 DEBUG (SyncWorker_4) [pymodbus.logging] decoded PDU function_code(3 sub -1) -> ReadHoldingRegistersResponse(dev_id=0, transaction_id=0, address=0, count=0, bits=[], registers=[2], status=1) [0m
[36m2025-08-04 20:16:37.022 DEBUG (SyncWorker_4) [pymodbus.logging] Frame advanced, resetting header!![0m
[36m2025-08-04 20:16:37.212 DEBUG (SyncWorker_4) [pymodbus.logging] Processing: 0x0 0x6 0x0 0x0 0x0 0x5 0xa 0x3 0x2 0x0 0x1[0m
[36m2025-08-04 20:16:37.212 DEBUG (SyncWorker_4) [pymodbus.logging] decoded PDU function_code(3 sub -1) -> ReadHoldingRegistersResponse(dev_id=0, transaction_id=0, address=0, count=0, bits=[], registers=[1], status=1) [0m
[36m2025-08-04 20:16:37.212 DEBUG (SyncWorker_4) [pymodbus.logging] Frame advanced, resetting header!![0m
[36m2025-08-04 20:16:37.407 DEBUG (SyncWorker_4) [pymodbus.logging] Processing: 0x0 0x7 0x0 0x0 0x0 0x7 0xa 0x3 0x4 0x0 0x0 0x0 0x0[0m
[36m2025-08-04 20:16:37.408 DEBUG (SyncWorker_4) [pymodbus.logging] decoded PDU function_code(3 sub -1) -> ReadHoldingRegistersResponse(dev_id=0, transaction_id=0, address=0, count=0, bits=[], registers=[0, 0], status=1) [0m
[36m2025-08-04 20:16:37.408 DEBUG (SyncWorker_4) [pymodbus.logging] Frame advanced, resetting header!![0m
[36m2025-08-04 20:16:37.585 DEBUG (SyncWorker_4) [pymodbus.logging] Processing: 0x0 0x8 0x0 0x0 0x0 0x5 0xa 0x1 0x2 0x52 0x0[0m
[36m2025-08-04 20:16:37.586 DEBUG (SyncWorker_4) [pymodbus.logging] decoded PDU function_code(1 sub -1) -> ReadCoilsResponse(dev_id=0, transaction_id=0, address=0, count=0, bits=[False, True, False, False, True, False, True, False, False, False, False, False, False, False, False, False], registers=[], status=1) [0m
[36m2025-08-04 20:16:37.586 DEBUG (SyncWorker_4) [pymodbus.logging] Frame advanced, resetting header!![0m
[36m2025-08-04 20:16:37.779 DEBUG (SyncWorker_4) [pymodbus.logging] Processing: 0x0 0x9 0x0 0x0 0x0 0x6 0xa 0x2 0x3 0x1c 0xc3 0x3[0m
[36m2025-08-04 20:16:37.779 DEBUG (SyncWorker_4) [pymodbus.logging] decoded PDU function_code(2 sub -1) -> ReadDiscreteInputsResponse(dev_id=0, transaction_id=0, address=0, count=0, bits=[False, False, True, True, True, False, False, False, True, True, False, False, False, False, True, True, True, True, False, False, False, False, False, False], registers=[], status=1) [0m
[36m2025-08-04 20:16:37.779 DEBUG (SyncWorker_4) [pymodbus.logging] Frame advanced, resetting header!![0m
[36m2025-08-04 20:16:37.780 DEBUG (SyncWorker_4) [custom_components.thessla_green_modbus.coordinator] Optimized data update complete: 9 groups read, 100.0% success rate[0m
[36m2025-08-04 20:16:37.781 DEBUG (MainThread) [custom_components.thessla_green_modbus.coordinator] Finished fetching thessla_green_modbus data in 11.566 seconds (success: True)[0m
[33m2025-08-04 20:17:00.833 WARNING (MainThread) [homeassistant.components.esphome.manager] Sensory: [W][component:307]: dallas_temp.sensor cleared Warning flag[0m
[33m2025-08-04 20:17:01.618 WARNING (MainThread) [homeassistant.components.esphome.manager] Sensory: [W][component:279]: dallas_temp.sensor set Warning flag: scratch pad checksum invalid[0m
[36m2025-08-04 20:17:07.219 DEBUG (SyncWorker_1) [pymodbus.logging] Connection to Modbus server established. Socket ('192.168.1.83', 51734)[0m
[33m2025-08-04 20:17:13.437 WARNING (MainThread) [py.warnings] /usr/local/lib/python3.13/site-packages/gql/transport/aiohttp.py:92: UserWarning: WARNING: By default, AIOHTTPTransport does not verify ssl certificates. This will be fixed in the next major version. You can set ssl=True to force the ssl certificate verification or ssl=False to disable this warning
  warnings.warn(
[0m
[36m2025-08-04 20:17:17.352 DEBUG (SyncWorker_1) [pymodbus.logging] Processing: 0x0 0x1 0x0 0x0 0x0 0x11 0xa 0x4 0xe 0x0 0xd3 0x0 0xdc 0x1 0x3 0x0 0xd8 0x80 0x0 0x80 0x0 0x1 0x2d[0m
[36m2025-08-04 20:17:17.352 DEBUG (SyncWorker_1) [pymodbus.logging] decoded PDU function_code(4 sub -1) -> ReadInputRegistersResponse(dev_id=0, transaction_id=0, address=0, count=0, bits=[], registers=[211, 220, 259, 216, 32768, 32768, 301], status=1) [0m
[36m2025-08-04 20:17:17.352 DEBUG (SyncWorker_1) [pymodbus.logging] Frame advanced, resetting header!![0m
[36m2025-08-04 20:17:17.528 DEBUG (SyncWorker_1) [pymodbus.logging] Processing: 0x0 0x2 0x0 0x0 0x0 0xb 0xa 0x4 0x8 0x0 0x1 0x0 0x1e 0x0 0x1e 0x0 0x63[0m
[36m2025-08-04 20:17:17.528 DEBUG (SyncWorker_1) [pymodbus.logging] decoded PDU function_code(4 sub -1) -> ReadInputRegistersResponse(dev_id=0, transaction_id=0, address=0, count=0, bits=[], registers=[1, 30, 30, 99], status=1) [0m
[36m2025-08-04 20:17:17.528 DEBUG (SyncWorker_1) [pymodbus.logging] Frame advanced, resetting header!![0m
[36m2025-08-04 20:17:17.715 DEBUG (SyncWorker_1) [pymodbus.logging] Processing: 0x0 0x3 0x0 0x0 0x0 0x9 0xa 0x3 0x6 0x0 0x1 0x0 0x0 0x0 0x1e[0m
[36m2025-08-04 20:17:17.716 DEBUG (SyncWorker_1) [pymodbus.logging] decoded PDU function_code(3 sub -1) -> ReadHoldingRegistersResponse(dev_id=0, transaction_id=0, address=0, count=0, bits=[], registers=[1, 0, 30], status=1) [0m
[36m2025-08-04 20:17:17.716 DEBUG (SyncWorker_1) [pymodbus.logging] Frame advanced, resetting header!![0m
[36m2025-08-04 20:17:17.900 DEBUG (SyncWorker_1) [pymodbus.logging] Processing: 0x0 0x4 0x0 0x0 0x0 0x5 0xa 0x3 0x2 0x0 0x0[0m
[36m2025-08-04 20:17:17.901 DEBUG (SyncWorker_1) [pymodbus.logging] decoded PDU function_code(3 sub -1) -> ReadHoldingRegistersResponse(dev_id=0, transaction_id=0, address=0, count=0, bits=[], registers=[0], status=1) [0m
[36m2025-08-04 20:17:17.901 DEBUG (SyncWorker_1) [pymodbus.logging] Frame advanced, resetting header!![0m
[36m2025-08-04 20:17:18.072 DEBUG (SyncWorker_1) [pymodbus.logging] Processing: 0x0 0x5 0x0 0x0 0x0 0x5 0xa 0x3 0x2 0x0 0x2[0m
[36m2025-08-04 20:17:18.072 DEBUG (SyncWorker_1) [pymodbus.logging] decoded PDU function_code(3 sub -1) -> ReadHoldingRegistersResponse(dev_id=0, transaction_id=0, address=0, count=0, bits=[], registers=[2], status=1) [0m
[36m2025-08-04 20:17:18.072 DEBUG (SyncWorker_1) [pymodbus.logging] Frame advanced, resetting header!![0m
[36m2025-08-04 20:17:18.253 DEBUG (SyncWorker_1) [pymodbus.logging] Processing: 0x0 0x6 0x0 0x0 0x0 0x5 0xa 0x3 0x2 0x0 0x1[0m
[36m2025-08-04 20:17:18.253 DEBUG (SyncWorker_1) [pymodbus.logging] decoded PDU function_code(3 sub -1) -> ReadHoldingRegistersResponse(dev_id=0, transaction_id=0, address=0, count=0, bits=[], registers=[1], status=1) [0m
[36m2025-08-04 20:17:18.253 DEBUG (SyncWorker_1) [pymodbus.logging] Frame advanced, resetting header!![0m
[36m2025-08-04 20:17:18.440 DEBUG (SyncWorker_1) [pymodbus.logging] Processing: 0x0 0x7 0x0 0x0 0x0 0x7 0xa 0x3 0x4 0x0 0x0 0x0 0x0[0m
[36m2025-08-04 20:17:18.440 DEBUG (SyncWorker_1) [pymodbus.logging] decoded PDU function_code(3 sub -1) -> ReadHoldingRegistersResponse(dev_id=0, transaction_id=0, address=0, count=0, bits=[], registers=[0, 0], status=1) [0m
[36m2025-08-04 20:17:18.440 DEBUG (SyncWorker_1) [pymodbus.logging] Frame advanced, resetting header!![0m
[36m2025-08-04 20:17:18.625 DEBUG (SyncWorker_1) [pymodbus.logging] Processing: 0x0 0x8 0x0 0x0 0x0 0x5 0xa 0x1 0x2 0x52 0x0[0m
[36m2025-08-04 20:17:18.625 DEBUG (SyncWorker_1) [pymodbus.logging] decoded PDU function_code(1 sub -1) -> ReadCoilsResponse(dev_id=0, transaction_id=0, address=0, count=0, bits=[False, True, False, False, True, False, True, False, False, False, False, False, False, False, False, False], registers=[], status=1) [0m
[36m2025-08-04 20:17:18.625 DEBUG (SyncWorker_1) [pymodbus.logging] Frame advanced, resetting header!![0m
[36m2025-08-04 20:17:18.817 DEBUG (SyncWorker_1) [pymodbus.logging] Processing: 0x0 0x9 0x0 0x0 0x0 0x6 0xa 0x2 0x3 0x1c 0xc3 0x3[0m
[36m2025-08-04 20:17:18.818 DEBUG (SyncWorker_1) [pymodbus.logging] decoded PDU function_code(2 sub -1) -> ReadDiscreteInputsResponse(dev_id=0, transaction_id=0, address=0, count=0, bits=[False, False, True, True, True, False, False, False, True, True, False, False, False, False, True, True, True, True, False, False, False, False, False, False], registers=[], status=1) [0m
[36m2025-08-04 20:17:18.818 DEBUG (SyncWorker_1) [pymodbus.logging] Frame advanced, resetting header!![0m
[36m2025-08-04 20:17:18.818 DEBUG (SyncWorker_1) [custom_components.thessla_green_modbus.coordinator] Optimized data update complete: 9 groups read, 100.0% success rate[0m
[36m2025-08-04 20:17:18.819 DEBUG (MainThread) [custom_components.thessla_green_modbus.coordinator] Finished fetching thessla_green_modbus data in 11.605 seconds (success: True)[0m
[33m2025-08-04 20:17:32.885 WARNING (MainThread) [homeassistant.helpers.service] Referenced entities number.rekuperator_predkosc are missing or not currently available[0m
[33m2025-08-04 20:17:32.887 WARNING (MainThread) [homeassistant.helpers.service] Referenced entities number.rekuperator_predkosc are missing or not currently available[0m
[36m2025-08-04 20:17:48.218 DEBUG (SyncWorker_1) [pymodbus.logging] Connection to Modbus server established. Socket ('192.168.1.83', 46232)[0m
[36m2025-08-04 20:17:58.381 DEBUG (SyncWorker_1) [pymodbus.logging] Processing: 0x0 0x1 0x0 0x0 0x0 0x11 0xa 0x4 0xe 0x0 0xd4 0x0 0xdc 0x1 0x3 0x0 0xd9 0x80 0x0 0x80 0x0 0x1 0x2d[0m
[36m2025-08-04 20:17:58.381 DEBUG (SyncWorker_1) [pymodbus.logging] decoded PDU function_code(4 sub -1) -> ReadInputRegistersResponse(dev_id=0, transaction_id=0, address=0, count=0, bits=[], registers=[212, 220, 259, 217, 32768, 32768, 301], status=1) [0m
[36m2025-08-04 20:17:58.381 DEBUG (SyncWorker_1) [pymodbus.logging] Frame advanced, resetting header!![0m
[36m2025-08-04 20:17:58.565 DEBUG (SyncWorker_1) [pymodbus.logging] Processing: 0x0 0x2 0x0 0x0 0x0 0xb 0xa 0x4 0x8 0x0 0x1 0x0 0x1e 0x0 0x1e 0x0 0x63[0m
[36m2025-08-04 20:17:58.565 DEBUG (SyncWorker_1) [pymodbus.logging] decoded PDU function_code(4 sub -1) -> ReadInputRegistersResponse(dev_id=0, transaction_id=0, address=0, count=0, bits=[], registers=[1, 30, 30, 99], status=1) [0m
[36m2025-08-04 20:17:58.566 DEBUG (SyncWorker_1) [pymodbus.logging] Frame advanced, resetting header!![0m
[33m2025-08-04 20:17:58.676 WARNING (MainThread) [homeassistant.components.sensor] Entity sensor.ebusd_bai_prenergycounthc1 (<class 'homeassistant.components.mqtt.sensor.MqttSensor'>) is using native unit of measurement 'None' which is not a valid unit for the device class ('energy') it is using; expected one of ['kcal', 'cal', 'TWh', 'MJ', 'J', 'Gcal', 'Mcal', 'MWh', 'GWh', 'Wh', 'kWh', 'mWh', 'kJ', 'GJ']; Please update your configuration if your entity is manually configured, otherwise create a bug report at https://github.com/home-assistant/core/issues?q=is%3Aopen+is%3Aissue+label%3A%22integration%3A+mqtt%22[0m
[36m2025-08-04 20:17:58.754 DEBUG (SyncWorker_1) [pymodbus.logging] Processing: 0x0 0x3 0x0 0x0 0x0 0x9 0xa 0x3 0x6 0x0 0x1 0x0 0x0 0x0 0x1e[0m
[36m2025-08-04 20:17:58.754 DEBUG (SyncWorker_1) [pymodbus.logging] decoded PDU function_code(3 sub -1) -> ReadHoldingRegistersResponse(dev_id=0, transaction_id=0, address=0, count=0, bits=[], registers=[1, 0, 30], status=1) [0m
[36m2025-08-04 20:17:58.755 DEBUG (SyncWorker_1) [pymodbus.logging] Frame advanced, resetting header!![0m
[36m2025-08-04 20:17:58.932 DEBUG (SyncWorker_1) [pymodbus.logging] Processing: 0x0 0x4 0x0 0x0 0x0 0x5 0xa 0x3 0x2 0x0 0x0[0m
[36m2025-08-04 20:17:58.932 DEBUG (SyncWorker_1) [pymodbus.logging] decoded PDU function_code(3 sub -1) -> ReadHoldingRegistersResponse(dev_id=0, transaction_id=0, address=0, count=0, bits=[], registers=[0], status=1) [0m
[36m2025-08-04 20:17:58.932 DEBUG (SyncWorker_1) [pymodbus.logging] Frame advanced, resetting header!![0m
[36m2025-08-04 20:17:59.123 DEBUG (SyncWorker_1) [pymodbus.logging] Processing: 0x0 0x5 0x0 0x0 0x0 0x5 0xa 0x3 0x2 0x0 0x2[0m
[36m2025-08-04 20:17:59.123 DEBUG (SyncWorker_1) [pymodbus.logging] decoded PDU function_code(3 sub -1) -> ReadHoldingRegistersResponse(dev_id=0, transaction_id=0, address=0, count=0, bits=[], registers=[2], status=1) [0m
[36m2025-08-04 20:17:59.123 DEBUG (SyncWorker_1) [pymodbus.logging] Frame advanced, resetting header!![0m
[36m2025-08-04 20:17:59.306 DEBUG (SyncWorker_1) [pymodbus.logging] Processing: 0x0 0x6 0x0 0x0 0x0 0x5 0xa 0x3 0x2 0x0 0x1[0m
[36m2025-08-04 20:17:59.306 DEBUG (SyncWorker_1) [pymodbus.logging] decoded PDU function_code(3 sub -1) -> ReadHoldingRegistersResponse(dev_id=0, transaction_id=0, address=0, count=0, bits=[], registers=[1], status=1) [0m
[36m2025-08-04 20:17:59.306 DEBUG (SyncWorker_1) [pymodbus.logging] Frame advanced, resetting header!![0m
[36m2025-08-04 20:17:59.489 DEBUG (SyncWorker_1) [pymodbus.logging] Processing: 0x0 0x7 0x0 0x0 0x0 0x7 0xa 0x3 0x4 0x0 0x0 0x0 0x0[0m
[36m2025-08-04 20:17:59.489 DEBUG (SyncWorker_1) [pymodbus.logging] decoded PDU function_code(3 sub -1) -> ReadHoldingRegistersResponse(dev_id=0, transaction_id=0, address=0, count=0, bits=[], registers=[0, 0], status=1) [0m
[36m2025-08-04 20:17:59.489 DEBUG (SyncWorker_1) [pymodbus.logging] Frame advanced, resetting header!![0m
[36m2025-08-04 20:17:59.666 DEBUG (SyncWorker_1) [pymodbus.logging] Processing: 0x0 0x8 0x0 0x0 0x0 0x5 0xa 0x1 0x2 0x52 0x0[0m
[36m2025-08-04 20:17:59.666 DEBUG (SyncWorker_1) [pymodbus.logging] decoded PDU function_code(1 sub -1) -> ReadCoilsResponse(dev_id=0, transaction_id=0, address=0, count=0, bits=[False, True, False, False, True, False, True, False, False, False, False, False, False, False, False, False], registers=[], status=1) [0m
[36m2025-08-04 20:17:59.666 DEBUG (SyncWorker_1) [pymodbus.logging] Frame advanced, resetting header!![0m
[36m2025-08-04 20:17:59.848 DEBUG (SyncWorker_1) [pymodbus.logging] Processing: 0x0 0x9 0x0 0x0 0x0 0x6 0xa 0x2 0x3 0x1c 0xc3 0x1[0m
[36m2025-08-04 20:17:59.848 DEBUG (SyncWorker_1) [pymodbus.logging] decoded PDU function_code(2 sub -1) -> ReadDiscreteInputsResponse(dev_id=0, transaction_id=0, address=0, count=0, bits=[False, False, True, True, True, False, False, False, True, True, False, False, False, False, True, True, True, False, False, False, False, False, False, False], registers=[], status=1) [0m
[36m2025-08-04 20:17:59.848 DEBUG (SyncWorker_1) [pymodbus.logging] Frame advanced, resetting header!![0m
[36m2025-08-04 20:17:59.848 DEBUG (SyncWorker_1) [custom_components.thessla_green_modbus.coordinator] Optimized data update complete: 9 groups read, 100.0% success rate[0m
[36m2025-08-04 20:17:59.849 DEBUG (MainThread) [custom_components.thessla_green_modbus.coordinator] Finished fetching thessla_green_modbus data in 11.635 seconds (success: True)[0m
[33m2025-08-04 20:18:00.837 WARNING (MainThread) [homeassistant.components.esphome.manager] Sensory: [W][component:307]: dallas_temp.sensor cleared Warning flag[0m
[33m2025-08-04 20:18:01.619 WARNING (MainThread) [homeassistant.components.esphome.manager] Sensory: [W][component:279]: dallas_temp.sensor set Warning flag: scratch pad checksum invalid[0m
[33m2025-08-04 20:18:03.731 WARNING (MainThread) [homeassistant.components.sensor] Entity sensor.ebusd_bai_prenergycounthc2 (<class 'homeassistant.components.mqtt.sensor.MqttSensor'>) is using native unit of measurement 'None' which is not a valid unit for the device class ('energy') it is using; expected one of ['kcal', 'cal', 'TWh', 'MJ', 'J', 'Gcal', 'Mcal', 'MWh', 'GWh', 'Wh', 'kWh', 'mWh', 'kJ', 'GJ']; Please update your configuration if your entity is manually configured, otherwise create a bug report at https://github.com/home-assistant/core/issues?q=is%3Aopen+is%3Aissue+label%3A%22integration%3A+mqtt%22[0m
[33m2025-08-04 20:18:08.727 WARNING (MainThread) [homeassistant.components.sensor] Entity sensor.ebusd_bai_prenergycounthc3 (<class 'homeassistant.components.mqtt.sensor.MqttSensor'>) is using native unit of measurement 'None' which is not a valid unit for the device class ('energy') it is using; expected one of ['kcal', 'cal', 'TWh', 'MJ', 'J', 'Gcal', 'Mcal', 'MWh', 'GWh', 'Wh', 'kWh', 'mWh', 'kJ', 'GJ']; Please update your configuration if your entity is manually configured, otherwise create a bug report at https://github.com/home-assistant/core/issues?q=is%3Aopen+is%3Aissue+label%3A%22integration%3A+mqtt%22[0m
