[36m2025-08-15 12:39:25.219 DEBUG (MainThread) [pymodbus.logging] Frame advanced, resetting header!![0m
[36m2025-08-15 12:39:25.220 DEBUG (MainThread) [pymodbus.logging] send: 0x0 0x38 0x0 0x0 0x0 0x6 0xa 0x3 0x10 0x71 0x0 0x10[0m
[36m2025-08-15 12:39:25.416 DEBUG (MainThread) [pymodbus.logging] recv: 0x0 0x38 0x0 0x0 0x0 0x23 0xa 0x3 0x20 0x0 0x0 0x0 0x1e 0x0 0x50 0x0 0x2a 0x0 0x2a 0x0 0x0 0x0 0x0 0x0 0x1e 0x0 0x3c 0x0 0x64 0x24 0x0 0x0 0x0 0x0 0x0 0x0 0x0 0x0 0x0 0x0 0x0 old_data:  addr=None[0m
[36m2025-08-15 12:39:25.417 DEBUG (MainThread) [pymodbus.logging] Processing: 0x0 0x38 0x0 0x0 0x0 0x23 0xa 0x3 0x20 0x0 0x0 0x0 0x1e 0x0 0x50 0x0 0x2a 0x0 0x2a 0x0 0x0 0x0 0x0 0x0 0x1e 0x0 0x3c 0x0 0x64 0x24 0x0 0x0 0x0 0x0 0x0 0x0 0x0 0x0 0x0 0x0 0x0[0m
[36m2025-08-15 12:39:25.417 DEBUG (MainThread) [pymodbus.logging] decoded PDU function_code(3 sub -1) -> ReadHoldingRegistersResponse(dev_id=0, transaction_id=0, address=0, count=0, bits=[], registers=[0, 30, 80, 42, 42, 0, 0, 30, 60, 100, 9216, 0, 0, 0, 0, 0], status=1) [0m
[36m2025-08-15 12:39:25.417 DEBUG (MainThread) [pymodbus.logging] Frame advanced, resetting header!![0m
[36m2025-08-15 12:39:25.417 DEBUG (MainThread) [pymodbus.logging] send: 0x0 0x39 0x0 0x0 0x0 0x6 0xa 0x3 0x10 0x95 0x0 0x1[0m
[36m2025-08-15 12:39:25.578 DEBUG (MainThread) [pymodbus.logging] recv: 0x0 0x39 0x0 0x0 0x0 0x5 0xa 0x3 0x2 0x0 0x0 old_data:  addr=None[0m
[36m2025-08-15 12:39:25.579 DEBUG (MainThread) [pymodbus.logging] Processing: 0x0 0x39 0x0 0x0 0x0 0x5 0xa 0x3 0x2 0x0 0x0[0m
[36m2025-08-15 12:39:25.579 DEBUG (MainThread) [pymodbus.logging] decoded PDU function_code(3 sub -1) -> ReadHoldingRegistersResponse(dev_id=0, transaction_id=0, address=0, count=0, bits=[], registers=[0], status=1) [0m
[36m2025-08-15 12:39:25.579 DEBUG (MainThread) [pymodbus.logging] Frame advanced, resetting header!![0m
[36m2025-08-15 12:39:25.579 DEBUG (MainThread) [pymodbus.logging] send: 0x0 0x3a 0x0 0x0 0x0 0x6 0xa 0x3 0x10 0xa0 0x0 0x10[0m
[36m2025-08-15 12:39:25.780 DEBUG (MainThread) [pymodbus.logging] recv: 0x0 0x3a 0x0 0x0 0x0 0x23 0xa 0x3 0x20 0x0 0x0 0x0 0xa 0x0 0x32 0x0 0x0 0x0 0x0 0x0 0x50 0x0 0x0 0x0 0x0 0x0 0x4 0x0 0x4 0x0 0x0 0x5 0x0 0x17 0x0 0x19 0x0 0x7 0x0 0x0 0x0 old_data:  addr=None[0m
[36m2025-08-15 12:39:25.781 DEBUG (MainThread) [pymodbus.logging] Processing: 0x0 0x3a 0x0 0x0 0x0 0x23 0xa 0x3 0x20 0x0 0x0 0x0 0xa 0x0 0x32 0x0 0x0 0x0 0x0 0x0 0x50 0x0 0x0 0x0 0x0 0x0 0x4 0x0 0x4 0x0 0x0 0x5 0x0 0x17 0x0 0x19 0x0 0x7 0x0 0x0 0x0[0m
[36m2025-08-15 12:39:25.781 DEBUG (MainThread) [pymodbus.logging] decoded PDU function_code(3 sub -1) -> ReadHoldingRegistersResponse(dev_id=0, transaction_id=0, address=0, count=0, bits=[], registers=[0, 10, 50, 0, 0, 80, 0, 0, 4, 4, 0, 1280, 5888, 6400, 1792, 0], status=1) [0m
[36m2025-08-15 12:39:25.781 DEBUG (MainThread) [pymodbus.logging] Frame advanced, resetting header!![0m
[36m2025-08-15 12:39:25.781 DEBUG (MainThread) [pymodbus.logging] send: 0x0 0x3b 0x0 0x0 0x0 0x6 0xa 0x3 0x10 0xd0 0x0 0x2[0m
[36m2025-08-15 12:39:25.951 DEBUG (MainThread) [pymodbus.logging] recv: 0x0 0x3b 0x0 0x0 0x0 0x7 0xa 0x3 0x4 0x0 0x0 0x0 0x0 old_data:  addr=None[0m
[36m2025-08-15 12:39:25.952 DEBUG (MainThread) [pymodbus.logging] Processing: 0x0 0x3b 0x0 0x0 0x0 0x7 0xa 0x3 0x4 0x0 0x0 0x0 0x0[0m
[36m2025-08-15 12:39:25.952 DEBUG (MainThread) [pymodbus.logging] decoded PDU function_code(3 sub -1) -> ReadHoldingRegistersResponse(dev_id=0, transaction_id=0, address=0, count=0, bits=[], registers=[0, 0], status=1) [0m
[36m2025-08-15 12:39:25.952 DEBUG (MainThread) [pymodbus.logging] Frame advanced, resetting header!![0m
[36m2025-08-15 12:39:25.952 DEBUG (MainThread) [pymodbus.logging] send: 0x0 0x3c 0x0 0x0 0x0 0x6 0xa 0x3 0x10 0xe0 0x0 0xe[0m
[36m2025-08-15 12:39:26.147 DEBUG (MainThread) [pymodbus.logging] recv: 0x0 0x3c 0x0 0x0 0x0 0x1f 0xa 0x3 0x1c 0x0 0x0 0x0 0x14 0x0 0x2e 0x0 0x2e 0x1 0x2c 0x0 0x0 0x0 0x0 0x0 0x0 0x0 0x0 0x0 0x1 0x0 0x0 0x0 0x1 0x0 0x64 0x0 0x5a old_data:  addr=None[0m
[36m2025-08-15 12:39:26.148 DEBUG (MainThread) [pymodbus.logging] Processing: 0x0 0x3c 0x0 0x0 0x0 0x1f 0xa 0x3 0x1c 0x0 0x0 0x0 0x14 0x0 0x2e 0x0 0x2e 0x1 0x2c 0x0 0x0 0x0 0x0 0x0 0x0 0x0 0x0 0x0 0x1 0x0 0x0 0x0 0x1 0x0 0x64 0x0 0x5a[0m
[36m2025-08-15 12:39:26.148 DEBUG (MainThread) [pymodbus.logging] decoded PDU function_code(3 sub -1) -> ReadHoldingRegistersResponse(dev_id=0, transaction_id=0, address=0, count=0, bits=[], registers=[0, 20, 46, 46, 300, 0, 0, 0, 0, 1, 0, 1, 100, 90], status=1) [0m
[36m2025-08-15 12:39:26.148 DEBUG (MainThread) [pymodbus.logging] Frame advanced, resetting header!![0m
[36m2025-08-15 12:39:26.148 DEBUG (MainThread) [pymodbus.logging] send: 0x0 0x3d 0x0 0x0 0x0 0x6 0xa 0x3 0x11 0x2 0x0 0x4[0m
[36m2025-08-15 12:39:26.308 DEBUG (MainThread) [pymodbus.logging] recv: 0x0 0x3d 0x0 0x0 0x0 0xb 0xa 0x3 0x8 0x1 0x4a 0x1 0x4a 0x0 0x6e 0x0 0x6e old_data:  addr=None[0m
[36m2025-08-15 12:39:26.308 DEBUG (MainThread) [pymodbus.logging] Processing: 0x0 0x3d 0x0 0x0 0x0 0xb 0xa 0x3 0x8 0x1 0x4a 0x1 0x4a 0x0 0x6e 0x0 0x6e[0m
[36m2025-08-15 12:39:26.309 DEBUG (MainThread) [pymodbus.logging] decoded PDU function_code(3 sub -1) -> ReadHoldingRegistersResponse(dev_id=0, transaction_id=0, address=0, count=0, bits=[], registers=[330, 330, 110, 110], status=1) [0m
[36m2025-08-15 12:39:26.309 DEBUG (MainThread) [pymodbus.logging] Frame advanced, resetting header!![0m
[36m2025-08-15 12:39:26.309 DEBUG (MainThread) [pymodbus.logging] send: 0x0 0x3e 0x0 0x0 0x0 0x6 0xa 0x3 0x11 0x20 0x0 0x4[0m
[36m2025-08-15 12:39:26.489 DEBUG (MainThread) [pymodbus.logging] recv: 0x0 0x3e 0x0 0x0 0x0 0xb 0xa 0x3 0x8 0x0 0x0 0x0 0x0 0x0 0xb4 0x0 0x1 old_data:  addr=None[0m
[36m2025-08-15 12:39:26.489 DEBUG (MainThread) [pymodbus.logging] Processing: 0x0 0x3e 0x0 0x0 0x0 0xb 0xa 0x3 0x8 0x0 0x0 0x0 0x0 0x0 0xb4 0x0 0x1[0m
[36m2025-08-15 12:39:26.489 DEBUG (MainThread) [pymodbus.logging] decoded PDU function_code(3 sub -1) -> ReadHoldingRegistersResponse(dev_id=0, transaction_id=0, address=0, count=0, bits=[], registers=[0, 0, 180, 1], status=1) [0m
[36m2025-08-15 12:39:26.489 DEBUG (MainThread) [pymodbus.logging] Frame advanced, resetting header!![0m
[36m2025-08-15 12:39:26.489 DEBUG (MainThread) [pymodbus.logging] send: 0x0 0x3f 0x0 0x0 0x0 0x6 0xa 0x3 0x11 0x2f 0x0 0x10[0m
[36m2025-08-15 12:39:26.695 DEBUG (MainThread) [pymodbus.logging] recv: 0x0 0x3f 0x0 0x0 0x0 0x23 0xa 0x3 0x20 0x0 0x0 0x0 0x1 0x0 0x50 0x0 0x0 0x0 0x1 0x0 0x2a 0x0 0x0 0x0 0x0 0x0 0x0 0x0 0x0 0x0 0x0 0x0 0x0 0x0 0x0 0x0 0x0 0x0 0x0 0x0 0x0 old_data:  addr=None[0m
[36m2025-08-15 12:39:26.696 DEBUG (MainThread) [pymodbus.logging] Processing: 0x0 0x3f 0x0 0x0 0x0 0x23 0xa 0x3 0x20 0x0 0x0 0x0 0x1 0x0 0x50 0x0 0x0 0x0 0x1 0x0 0x2a 0x0 0x0 0x0 0x0 0x0 0x0 0x0 0x0 0x0 0x0 0x0 0x0 0x0 0x0 0x0 0x0 0x0 0x0 0x0 0x0[0m
[36m2025-08-15 12:39:26.696 DEBUG (MainThread) [pymodbus.logging] decoded PDU function_code(3 sub -1) -> ReadHoldingRegistersResponse(dev_id=0, transaction_id=0, address=0, count=0, bits=[], registers=[0, 1, 80, 0, 1, 42, 0, 0, 0, 0, 0, 0, 0, 0, 0, 0], status=1) [0m
[36m2025-08-15 12:39:26.696 DEBUG (MainThread) [pymodbus.logging] Frame advanced, resetting header!![0m
[36m2025-08-15 12:39:26.696 DEBUG (MainThread) [pymodbus.logging] send: 0x0 0x40 0x0 0x0 0x0 0x6 0xa 0x3 0x11 0x50 0x0 0x2[0m
[36m2025-08-15 12:39:26.866 DEBUG (MainThread) [pymodbus.logging] recv: 0x0 0x40 0x0 0x0 0x0 0x7 0xa 0x3 0x4 0x0 0x0 0x0 0x0 old_data:  addr=None[0m
[36m2025-08-15 12:39:26.867 DEBUG (MainThread) [pymodbus.logging] Processing: 0x0 0x40 0x0 0x0 0x0 0x7 0xa 0x3 0x4 0x0 0x0 0x0 0x0[0m
[36m2025-08-15 12:39:26.867 DEBUG (MainThread) [pymodbus.logging] decoded PDU function_code(3 sub -1) -> ReadHoldingRegistersResponse(dev_id=0, transaction_id=0, address=0, count=0, bits=[], registers=[0, 0], status=1) [0m
[36m2025-08-15 12:39:26.867 DEBUG (MainThread) [pymodbus.logging] Frame advanced, resetting header!![0m
[36m2025-08-15 12:39:26.867 DEBUG (MainThread) [pymodbus.logging] send: 0x0 0x41 0x0 0x0 0x0 0x6 0xa 0x3 0x1f 0xd0 0x0 0x8[0m
[36m2025-08-15 12:39:27.071 DEBUG (MainThread) [pymodbus.logging] recv: 0x0 0x41 0x0 0x0 0x0 0x13 0xa 0x3 0x10 0x0 0x0 0x0 0x0 0x0 0x0 0x0 0x0 0x0 0x0 0x0 0x0 0x0 0x0 0x0 0x0 old_data:  addr=None[0m
[36m2025-08-15 12:39:27.072 DEBUG (MainThread) [pymodbus.logging] Processing: 0x0 0x41 0x0 0x0 0x0 0x13 0xa 0x3 0x10 0x0 0x0 0x0 0x0 0x0 0x0 0x0 0x0 0x0 0x0 0x0 0x0 0x0 0x0 0x0 0x0[0m
[36m2025-08-15 12:39:27.072 DEBUG (MainThread) [pymodbus.logging] decoded PDU function_code(3 sub -1) -> ReadHoldingRegistersResponse(dev_id=0, transaction_id=0, address=0, count=0, bits=[], registers=[0, 0, 0, 0, 0, 0, 0, 0], status=1) [0m
[36m2025-08-15 12:39:27.072 DEBUG (MainThread) [pymodbus.logging] Frame advanced, resetting header!![0m
[36m2025-08-15 12:39:27.072 DEBUG (MainThread) [pymodbus.logging] send: 0x0 0x42 0x0 0x0 0x0 0x6 0xa 0x3 0x20 0xd 0x0 0x11[0m
[36m2025-08-15 12:39:27.263 DEBUG (MainThread) [pymodbus.logging] recv: 0x0 0x42 0x0 0x0 0x0 0x25 0xa 0x3 0x22 0x0 0x0 0x0 0x0 0x0 0x0 0x0 0x0 0x0 0x0 0x0 0x0 0x0 0x0 0x0 0x0 0x0 0x0 0x0 0x0 0x0 0x0 0x0 0x0 0x0 0x0 0x0 0x0 0x0 0x0 0x0 0x0 0x0 0x0 old_data:  addr=None[0m
[36m2025-08-15 12:39:27.263 DEBUG (MainThread) [pymodbus.logging] Processing: 0x0 0x42 0x0 0x0 0x0 0x25 0xa 0x3 0x22 0x0 0x0 0x0 0x0 0x0 0x0 0x0 0x0 0x0 0x0 0x0 0x0 0x0 0x0 0x0 0x0 0x0 0x0 0x0 0x0 0x0 0x0 0x0 0x0 0x0 0x0 0x0 0x0 0x0 0x0 0x0 0x0 0x0 0x0[0m
[36m2025-08-15 12:39:27.263 DEBUG (MainThread) [pymodbus.logging] decoded PDU function_code(3 sub -1) -> ReadHoldingRegistersResponse(dev_id=0, transaction_id=0, address=0, count=0, bits=[], registers=[0, 0, 0, 0, 0, 0, 0, 0, 0, 0, 0, 0, 0, 0, 0, 0, 0], status=1) [0m
[36m2025-08-15 12:39:27.263 DEBUG (MainThread) [pymodbus.logging] Frame advanced, resetting header!![0m
[36m2025-08-15 12:39:27.264 DEBUG (MainThread) [pymodbus.logging] send: 0x0 0x43 0x0 0x0 0x0 0x6 0xa 0x3 0x20 0x1e 0x0 0x3[0m
[36m2025-08-15 12:39:27.432 DEBUG (MainThread) [pymodbus.logging] recv: 0x0 0x43 0x0 0x0 0x0 0x9 0xa 0x3 0x6 0x0 0x0 0x0 0x0 0x0 0x0 old_data:  addr=None[0m
[36m2025-08-15 12:39:27.433 DEBUG (MainThread) [pymodbus.logging] Processing: 0x0 0x43 0x0 0x0 0x0 0x9 0xa 0x3 0x6 0x0 0x0 0x0 0x0 0x0 0x0[0m
[36m2025-08-15 12:39:27.433 DEBUG (MainThread) [pymodbus.logging] decoded PDU function_code(3 sub -1) -> ReadHoldingRegistersResponse(dev_id=0, transaction_id=0, address=0, count=0, bits=[], registers=[0, 0, 0], status=1) [0m
[36m2025-08-15 12:39:27.433 DEBUG (MainThread) [pymodbus.logging] Frame advanced, resetting header!![0m
[36m2025-08-15 12:39:27.433 DEBUG (MainThread) [pymodbus.logging] send: 0x0 0x44 0x0 0x0 0x0 0x6 0xa 0x3 0x20 0x63 0x0 0x8[0m
[36m2025-08-15 12:39:27.614 DEBUG (MainThread) [pymodbus.logging] recv: 0x0 0x44 0x0 0x0 0x0 0x13 0xa 0x3 0x10 0x0 0x0 0x0 0x0 0x0 0x0 0x0 0x0 0x0 0x0 0x0 0x0 0x0 0x0 0x0 0x0 old_data:  addr=None[0m
[36m2025-08-15 12:39:27.615 DEBUG (MainThread) [pymodbus.logging] Processing: 0x0 0x44 0x0 0x0 0x0 0x13 0xa 0x3 0x10 0x0 0x0 0x0 0x0 0x0 0x0 0x0 0x0 0x0 0x0 0x0 0x0 0x0 0x0 0x0 0x0[0m
[36m2025-08-15 12:39:27.615 DEBUG (MainThread) [pymodbus.logging] decoded PDU function_code(3 sub -1) -> ReadHoldingRegistersResponse(dev_id=0, transaction_id=0, address=0, count=0, bits=[], registers=[0, 0, 0, 0, 0, 0, 0, 0], status=1) [0m
[36m2025-08-15 12:39:27.615 DEBUG (MainThread) [pymodbus.logging] Frame advanced, resetting header!![0m
[36m2025-08-15 12:39:27.615 DEBUG (MainThread) [pymodbus.logging] send: 0x0 0x45 0x0 0x0 0x0 0x6 0xa 0x3 0x20 0x8a 0x0 0x2[0m
[36m2025-08-15 12:39:27.784 DEBUG (MainThread) [pymodbus.logging] recv: 0x0 0x45 0x0 0x0 0x0 0x7 0xa 0x3 0x4 0x0 0x0 0x0 0x0 old_data:  addr=None[0m
[36m2025-08-15 12:39:27.784 DEBUG (MainThread) [pymodbus.logging] Processing: 0x0 0x45 0x0 0x0 0x0 0x7 0xa 0x3 0x4 0x0 0x0 0x0 0x0[0m
[36m2025-08-15 12:39:27.784 DEBUG (MainThread) [pymodbus.logging] decoded PDU function_code(3 sub -1) -> ReadHoldingRegistersResponse(dev_id=0, transaction_id=0, address=0, count=0, bits=[], registers=[0, 0], status=1) [0m
[36m2025-08-15 12:39:27.784 DEBUG (MainThread) [pymodbus.logging] Frame advanced, resetting header!![0m
[36m2025-08-15 12:39:27.785 DEBUG (MainThread) [pymodbus.logging] send: 0x0 0x46 0x0 0x0 0x0 0x6 0xa 0x3 0x20 0x98 0x0 0x1[0m
[36m2025-08-15 12:39:27.961 DEBUG (MainThread) [pymodbus.logging] recv: 0x0 0x46 0x0 0x0 0x0 0x5 0xa 0x3 0x2 0x0 0x0 old_data:  addr=None[0m
[36m2025-08-15 12:39:27.962 DEBUG (MainThread) [pymodbus.logging] Processing: 0x0 0x46 0x0 0x0 0x0 0x5 0xa 0x3 0x2 0x0 0x0[0m
[36m2025-08-15 12:39:27.962 DEBUG (MainThread) [pymodbus.logging] decoded PDU function_code(3 sub -1) -> ReadHoldingRegistersResponse(dev_id=0, transaction_id=0, address=0, count=0, bits=[], registers=[0], status=1) [0m
[36m2025-08-15 12:39:27.962 DEBUG (MainThread) [pymodbus.logging] Frame advanced, resetting header!![0m
[36m2025-08-15 12:39:27.962 DEBUG (MainThread) [pymodbus.logging] send: 0x0 0x47 0x0 0x0 0x0 0x6 0xa 0x3 0x20 0xc6 0x0 0x6[0m
[36m2025-08-15 12:39:28.153 DEBUG (MainThread) [pymodbus.logging] recv: 0x0 0x47 0x0 0x0 0x0 0xf 0xa 0x3 0xc 0x0 0x0 0x0 0x0 0x0 0x0 0x0 0x0 0x0 0x0 0x0 0x0 old_data:  addr=None[0m
[36m2025-08-15 12:39:28.153 DEBUG (MainThread) [pymodbus.logging] Processing: 0x0 0x47 0x0 0x0 0x0 0xf 0xa 0x3 0xc 0x0 0x0 0x0 0x0 0x0 0x0 0x0 0x0 0x0 0x0 0x0 0x0[0m
[36m2025-08-15 12:39:28.154 DEBUG (MainThread) [pymodbus.logging] decoded PDU function_code(3 sub -1) -> ReadHoldingRegistersResponse(dev_id=0, transaction_id=0, address=0, count=0, bits=[], registers=[0, 0, 0, 0, 0, 0], status=1) [0m
[36m2025-08-15 12:39:28.154 DEBUG (MainThread) [pymodbus.logging] Frame advanced, resetting header!![0m
[36m2025-08-15 12:39:28.154 DEBUG (MainThread) [pymodbus.logging] send: 0x0 0x48 0x0 0x0 0x0 0x6 0xa 0x3 0x20 0xf9 0x0 0x4[0m
[36m2025-08-15 12:39:28.350 DEBUG (MainThread) [pymodbus.logging] recv: 0x0 0x48 0x0 0x0 0x0 0xb 0xa 0x3 0x8 0x0 0x0 0x0 0x0 0x0 0x0 0x0 0x0 old_data:  addr=None[0m
[36m2025-08-15 12:39:28.350 DEBUG (MainThread) [pymodbus.logging] Processing: 0x0 0x48 0x0 0x0 0x0 0xb 0xa 0x3 0x8 0x0 0x0 0x0 0x0 0x0 0x0 0x0 0x0[0m
[36m2025-08-15 12:39:28.350 DEBUG (MainThread) [pymodbus.logging] decoded PDU function_code(3 sub -1) -> ReadHoldingRegistersResponse(dev_id=0, transaction_id=0, address=0, count=0, bits=[], registers=[0, 0, 0, 0], status=1) [0m
[36m2025-08-15 12:39:28.350 DEBUG (MainThread) [pymodbus.logging] Frame advanced, resetting header!![0m
[36m2025-08-15 12:39:28.351 DEBUG (MainThread) [pymodbus.logging] send: 0x0 0x49 0x0 0x0 0x0 0x6 0xa 0x1 0x0 0x5 0x0 0xb[0m
[36m2025-08-15 12:39:28.536 DEBUG (MainThread) [pymodbus.logging] recv: 0x0 0x49 0x0 0x0 0x0 0x5 0xa 0x1 0x2 0x42 0x0 old_data:  addr=None[0m
[36m2025-08-15 12:39:28.537 DEBUG (MainThread) [pymodbus.logging] Processing: 0x0 0x49 0x0 0x0 0x0 0x5 0xa 0x1 0x2 0x42 0x0[0m
[36m2025-08-15 12:39:28.537 DEBUG (MainThread) [pymodbus.logging] decoded PDU function_code(1 sub -1) -> ReadCoilsResponse(dev_id=0, transaction_id=0, address=0, count=0, bits=[False, True, False, False, False, False, True, False, False, False, False, False, False, False, False, False], registers=[], status=1) [0m
[36m2025-08-15 12:39:28.537 DEBUG (MainThread) [pymodbus.logging] Frame advanced, resetting header!![0m
[36m2025-08-15 12:39:28.537 DEBUG (MainThread) [pymodbus.logging] send: 0x0 0x4a 0x0 0x0 0x0 0x6 0xa 0x2 0x0 0x0 0x0 0x10[0m
[36m2025-08-15 12:39:28.707 DEBUG (MainThread) [pymodbus.logging] recv: 0x0 0x4a 0x0 0x0 0x0 0x5 0xa 0x2 0x2 0x1c 0xc3 old_data:  addr=None[0m
[36m2025-08-15 12:39:28.708 DEBUG (MainThread) [pymodbus.logging] Processing: 0x0 0x4a 0x0 0x0 0x0 0x5 0xa 0x2 0x2 0x1c 0xc3[0m
[36m2025-08-15 12:39:28.708 DEBUG (MainThread) [pymodbus.logging] decoded PDU function_code(2 sub -1) -> ReadDiscreteInputsResponse(dev_id=0, transaction_id=0, address=0, count=0, bits=[False, False, True, True, True, False, False, False, True, True, False, False, False, False, True, True], registers=[], status=1) [0m
[36m2025-08-15 12:39:28.708 DEBUG (MainThread) [pymodbus.logging] Frame advanced, resetting header!![0m
[36m2025-08-15 12:39:28.708 DEBUG (MainThread) [pymodbus.logging] send: 0x0 0x4b 0x0 0x0 0x0 0x6 0xa 0x2 0x0 0x12 0x0 0x4[0m
[36m2025-08-15 12:39:28.906 DEBUG (MainThread) [pymodbus.logging] recv: 0x0 0x4b 0x0 0x0 0x0 0x4 0xa 0x2 0x1 0x0 old_data:  addr=None[0m
[36m2025-08-15 12:39:28.906 DEBUG (MainThread) [pymodbus.logging] Processing: 0x0 0x4b 0x0 0x0 0x0 0x4 0xa 0x2 0x1 0x0[0m
[36m2025-08-15 12:39:28.906 DEBUG (MainThread) [pymodbus.logging] decoded PDU function_code(2 sub -1) -> ReadDiscreteInputsResponse(dev_id=0, transaction_id=0, address=0, count=0, bits=[False, False, False, False, False, False, False, False], registers=[], status=1) [0m
[36m2025-08-15 12:39:28.907 DEBUG (MainThread) [pymodbus.logging] Frame advanced, resetting header!![0m
[36m2025-08-15 12:39:28.907 DEBUG (MainThread) [custom_components.thessla_green_modbus.coordinator] Data update successful: 268 values read in 27.92s[0m
[36m2025-08-15 12:39:28.907 DEBUG (MainThread) [custom_components.thessla_green_modbus.coordinator] Finished fetching thessla_green_modbus_ThesslaGreen data in 27.925 seconds (success: True)[0m
[32m2025-08-15 12:39:29.498 INFO (MainThread) [custom_components.thessla_green_modbus.services] ThesslaGreen Modbus services registered successfully[0m
[32m2025-08-15 12:39:29.498 INFO (MainThread) [custom_components.thessla_green_modbus] ThesslaGreen Modbus integration setup completed successfully[0m
[33m2025-08-15 12:39:49.432 WARNING (MainThread) [homeassistant.helpers.service] Referenced entities number.rekuperator_predkosc are missing or not currently available[0m
[33m2025-08-15 12:39:49.434 WARNING (MainThread) [homeassistant.helpers.service] Referenced entities number.rekuperator_predkosc are missing or not currently available[0m
[36m2025-08-15 12:39:58.156 DEBUG (MainThread) [pymodbus.logging] send: 0x0 0x4c 0x0 0x0 0x0 0x6 0xa 0x4 0x1 0xf 0x0 0x7[0m
[36m2025-08-15 12:39:58.300 DEBUG (MainThread) [pymodbus.logging] recv: 0x0 0x4c 0x0 0x0 0x0 0x11 0xa 0x4 0xe 0x0 0x1 0x0 0x1e 0x0 0x1e 0x0 0x63 0x0 0x63 0x0 0xa 0x0 0x6d old_data:  addr=None[0m
[36m2025-08-15 12:39:58.300 DEBUG (MainThread) [pymodbus.logging] Processing: 0x0 0x4c 0x0 0x0 0x0 0x11 0xa 0x4 0xe 0x0 0x1 0x0 0x1e 0x0 0x1e 0x0 0x63 0x0 0x63 0x0 0xa 0x0 0x6d[0m
[36m2025-08-15 12:39:58.300 DEBUG (MainThread) [pymodbus.logging] decoded PDU function_code(4 sub -1) -> ReadInputRegistersResponse(dev_id=0, transaction_id=0, address=0, count=0, bits=[], registers=[1, 30, 30, 99, 99, 10, 109], status=1) [0m
[36m2025-08-15 12:39:58.300 DEBUG (MainThread) [pymodbus.logging] Frame advanced, resetting header!![0m
[36m2025-08-15 12:39:58.301 DEBUG (MainThread) [pymodbus.logging] send: 0x0 0x4d 0x0 0x0 0x0 0x6 0xa 0x3 0x0 0x10 0x0 0x10[0m
[36m2025-08-15 12:39:58.518 DEBUG (MainThread) [pymodbus.logging] recv: 0x0 0x4d 0x0 0x0 0x0 0x23 0xa 0x3 0x20 0x4 0x0 0x6 0x0 0x13 0x0 0x15 0x0 0x4 0x0 0x6 0x0 0x13 0x0 0x15 0x0 0x4 0x0 0x6 0x0 0x13 0x0 0x15 0x0 0x4 0x0 0x6 0x0 0x13 0x0 0x15 0x0 old_data:  addr=None[0m
[36m2025-08-15 12:39:58.519 DEBUG (MainThread) [pymodbus.logging] Processing: 0x0 0x4d 0x0 0x0 0x0 0x23 0xa 0x3 0x20 0x4 0x0 0x6 0x0 0x13 0x0 0x15 0x0 0x4 0x0 0x6 0x0 0x13 0x0 0x15 0x0 0x4 0x0 0x6 0x0 0x13 0x0 0x15 0x0 0x4 0x0 0x6 0x0 0x13 0x0 0x15 0x0[0m
[36m2025-08-15 12:39:58.519 DEBUG (MainThread) [pymodbus.logging] decoded PDU function_code(3 sub -1) -> ReadHoldingRegistersResponse(dev_id=0, transaction_id=0, address=0, count=0, bits=[], registers=[1024, 1536, 4864, 5376, 1024, 1536, 4864, 5376, 1024, 1536, 4864, 5376, 1024, 1536, 4864, 5376], status=1) [0m
[36m2025-08-15 12:39:58.519 DEBUG (MainThread) [pymodbus.logging] Frame advanced, resetting header!![0m
[36m2025-08-15 12:39:58.519 DEBUG (MainThread) [pymodbus.logging] send: 0x0 0x4e 0x0 0x0 0x0 0x6 0xa 0x3 0x0 0x20 0x0 0x10[0m
[36m2025-08-15 12:39:58.690 DEBUG (MainThread) [pymodbus.logging] recv: 0x0 0x4e 0x0 0x0 0x0 0x23 0xa 0x3 0x20 0x4 0x0 0x6 0x0 0x13 0x0 0x15 0x0 0x4 0x0 0x6 0x0 0x13 0x0 0x15 0x0 0x4 0x0 0x6 0x0 0x13 0x0 0x15 0x0 0x8 0x0 0x8 0x30 0x16 0x0 0x22 0x0 old_data:  addr=None[0m
[36m2025-08-15 12:39:58.690 DEBUG (MainThread) [pymodbus.logging] Processing: 0x0 0x4e 0x0 0x0 0x0 0x23 0xa 0x3 0x20 0x4 0x0 0x6 0x0 0x13 0x0 0x15 0x0 0x4 0x0 0x6 0x0 0x13 0x0 0x15 0x0 0x4 0x0 0x6 0x0 0x13 0x0 0x15 0x0 0x8 0x0 0x8 0x30 0x16 0x0 0x22 0x0[0m
[36m2025-08-15 12:39:58.690 DEBUG (MainThread) [pymodbus.logging] decoded PDU function_code(3 sub -1) -> ReadHoldingRegistersResponse(dev_id=0, transaction_id=0, address=0, count=0, bits=[], registers=[1024, 1536, 4864, 5376, 1024, 1536, 4864, 5376, 1024, 1536, 4864, 5376, 2048, 2096, 5632, 8704], status=1) [0m
[36m2025-08-15 12:39:58.690 DEBUG (MainThread) [pymodbus.logging] Frame advanced, resetting header!![0m
[36m2025-08-15 12:39:58.691 DEBUG (MainThread) [pymodbus.logging] send: 0x0 0x4f 0x0 0x0 0x0 0x6 0xa 0x3 0x0 0x30 0x0 0x10[0m
[36m2025-08-15 12:39:58.871 DEBUG (MainThread) [pymodbus.logging] recv: 0x0 0x4f 0x0 0x0 0x0 0x23 0xa 0x3 0x20 0x8 0x0 0x8 0x30 0x16 0x0 0x22 0x0 0x8 0x0 0x8 0x30 0x16 0x0 0x22 0x0 0x8 0x0 0x8 0x30 0x16 0x0 0x22 0x0 0x8 0x0 0x8 0x30 0x16 0x0 0x22 0x0 old_data:  addr=None[0m
[36m2025-08-15 12:39:58.871 DEBUG (MainThread) [pymodbus.logging] Processing: 0x0 0x4f 0x0 0x0 0x0 0x23 0xa 0x3 0x20 0x8 0x0 0x8 0x30 0x16 0x0 0x22 0x0 0x8 0x0 0x8 0x30 0x16 0x0 0x22 0x0 0x8 0x0 0x8 0x30 0x16 0x0 0x22 0x0 0x8 0x0 0x8 0x30 0x16 0x0 0x22 0x0[0m
[36m2025-08-15 12:39:58.871 DEBUG (MainThread) [pymodbus.logging] decoded PDU function_code(3 sub -1) -> ReadHoldingRegistersResponse(dev_id=0, transaction_id=0, address=0, count=0, bits=[], registers=[2048, 2096, 5632, 8704, 2048, 2096, 5632, 8704, 2048, 2096, 5632, 8704, 2048, 2096, 5632, 8704], status=1) [0m
[36m2025-08-15 12:39:58.871 DEBUG (MainThread) [pymodbus.logging] Frame advanced, resetting header!![0m
[36m2025-08-15 12:39:58.872 DEBUG (MainThread) [pymodbus.logging] send: 0x0 0x50 0x0 0x0 0x0 0x6 0xa 0x3 0x0 0x40 0x0 0x10[0m
[36m2025-08-15 12:39:59.052 DEBUG (MainThread) [pymodbus.logging] recv: 0x0 0x50 0x0 0x0 0x0 0x23 0xa 0x3 0x20 0x8 0x0 0x8 0x30 0x16 0x0 0x22 0x0 0x8 0x0 0x8 0x30 0x16 0x0 0x22 0x0 0x32 0x2c 0xa 0x0 0x32 0x0 0xa 0x0 0x32 0x2c 0xa 0x0 0x32 0x0 0xa 0x0 old_data:  addr=None[0m
[36m2025-08-15 12:39:59.052 DEBUG (MainThread) [pymodbus.logging] Processing: 0x0 0x50 0x0 0x0 0x0 0x23 0xa 0x3 0x20 0x8 0x0 0x8 0x30 0x16 0x0 0x22 0x0 0x8 0x0 0x8 0x30 0x16 0x0 0x22 0x0 0x32 0x2c 0xa 0x0 0x32 0x0 0xa 0x0 0x32 0x2c 0xa 0x0 0x32 0x0 0xa 0x0[0m
[36m2025-08-15 12:39:59.052 DEBUG (MainThread) [pymodbus.logging] decoded PDU function_code(3 sub -1) -> ReadHoldingRegistersResponse(dev_id=0, transaction_id=0, address=0, count=0, bits=[], registers=[2048, 2096, 5632, 8704, 2048, 2096, 5632, 8704, 12844, 2560, 12800, 2560, 12844, 2560, 12800, 2560], status=1) [0m
[36m2025-08-15 12:39:59.053 DEBUG (MainThread) [pymodbus.logging] Frame advanced, resetting header!![0m
[36m2025-08-15 12:39:59.053 DEBUG (MainThread) [pymodbus.logging] send: 0x0 0x51 0x0 0x0 0x0 0x6 0xa 0x3 0x0 0x50 0x0 0x10[0m
[36m2025-08-15 12:39:59.234 DEBUG (MainThread) [pymodbus.logging] recv: 0x0 0x51 0x0 0x0 0x0 0x23 0xa 0x3 0x20 0x32 0x2c 0xa 0x0 0x32 0x0 0xa 0x0 0x32 0x2c 0xa 0x0 0x32 0x0 0xa 0x0 0x32 0x2c 0xa 0x0 0x32 0x0 0xa 0x0 0x32 0x2c 0xa 0x0 0x32 0x0 0xa 0x0 old_data:  addr=None[0m
[36m2025-08-15 12:39:59.234 DEBUG (MainThread) [pymodbus.logging] Processing: 0x0 0x51 0x0 0x0 0x0 0x23 0xa 0x3 0x20 0x32 0x2c 0xa 0x0 0x32 0x0 0xa 0x0 0x32 0x2c 0xa 0x0 0x32 0x0 0xa 0x0 0x32 0x2c 0xa 0x0 0x32 0x0 0xa 0x0 0x32 0x2c 0xa 0x0 0x32 0x0 0xa 0x0[0m
[36m2025-08-15 12:39:59.234 DEBUG (MainThread) [pymodbus.logging] decoded PDU function_code(3 sub -1) -> ReadHoldingRegistersResponse(dev_id=0, transaction_id=0, address=0, count=0, bits=[], registers=[12844, 2560, 12800, 2560, 12844, 2560, 12800, 2560, 12844, 2560, 12800, 2560, 12844, 2560, 12800, 2560], status=1) [0m
[36m2025-08-15 12:39:59.235 DEBUG (MainThread) [pymodbus.logging] Frame advanced, resetting header!![0m
[36m2025-08-15 12:39:59.235 DEBUG (MainThread) [pymodbus.logging] send: 0x0 0x52 0x0 0x0 0x0 0x6 0xa 0x3 0x0 0x60 0x0 0x10[0m
[36m2025-08-15 12:39:59.434 DEBUG (MainThread) [pymodbus.logging] recv: 0x0 0x52 0x0 0x0 0x0 0x23 0xa 0x3 0x20 0x32 0x2c 0xa 0x0 0x32 0x0 0xa 0x0 0x46 0x28 0xa 0x28 0xa 0x28 0xa 0x28 0x46 0x28 0xa 0x28 0xa 0x28 0xa 0x28 0x46 0x28 0xa 0x28 0xa 0x28 0xa 0x28 old_data:  addr=None[0m
[36m2025-08-15 12:39:59.434 DEBUG (MainThread) [pymodbus.logging] Processing: 0x0 0x52 0x0 0x0 0x0 0x23 0xa 0x3 0x20 0x32 0x2c 0xa 0x0 0x32 0x0 0xa 0x0 0x46 0x28 0xa 0x28 0xa 0x28 0xa 0x28 0x46 0x28 0xa 0x28 0xa 0x28 0xa 0x28 0x46 0x28 0xa 0x28 0xa 0x28 0xa 0x28[0m
[36m2025-08-15 12:39:59.434 DEBUG (MainThread) [pymodbus.logging] decoded PDU function_code(3 sub -1) -> ReadHoldingRegistersResponse(dev_id=0, transaction_id=0, address=0, count=0, bits=[], registers=[12844, 2560, 12800, 2560, 17960, 2600, 2600, 2600, 17960, 2600, 2600, 2600, 17960, 2600, 2600, 2600], status=1) [0m
[36m2025-08-15 12:39:59.434 DEBUG (MainThread) [pymodbus.logging] Frame advanced, resetting header!![0m
[36m2025-08-15 12:39:59.434 DEBUG (MainThread) [pymodbus.logging] send: 0x0 0x53 0x0 0x0 0x0 0x6 0xa 0x3 0x0 0x70 0x0 0x10[0m
[36m2025-08-15 12:39:59.625 DEBUG (MainThread) [pymodbus.logging] recv: 0x0 0x53 0x0 0x0 0x0 0x23 0xa 0x3 0x20 0x46 0x28 0xa 0x28 0xa 0x28 0xa 0x28 0x46 0x28 0xa 0x28 0xa 0x28 0xa 0x28 0x46 0x28 0xa 0x28 0xa 0x28 0xa 0x28 0x46 0x28 0xa 0x28 0xa 0x28 0xa 0x28 old_data:  addr=None[0m
[36m2025-08-15 12:39:59.626 DEBUG (MainThread) [pymodbus.logging] Processing: 0x0 0x53 0x0 0x0 0x0 0x23 0xa 0x3 0x20 0x46 0x28 0xa 0x28 0xa 0x28 0xa 0x28 0x46 0x28 0xa 0x28 0xa 0x28 0xa 0x28 0x46 0x28 0xa 0x28 0xa 0x28 0xa 0x28 0x46 0x28 0xa 0x28 0xa 0x28 0xa 0x28[0m
[36m2025-08-15 12:39:59.626 DEBUG (MainThread) [pymodbus.logging] decoded PDU function_code(3 sub -1) -> ReadHoldingRegistersResponse(dev_id=0, transaction_id=0, address=0, count=0, bits=[], registers=[17960, 2600, 2600, 2600, 17960, 2600, 2600, 2600, 17960, 2600, 2600, 2600, 17960, 2600, 2600, 2600], status=1) [0m
[36m2025-08-15 12:39:59.626 DEBUG (MainThread) [pymodbus.logging] Frame advanced, resetting header!![0m
[36m2025-08-15 12:39:59.626 DEBUG (MainThread) [pymodbus.logging] send: 0x0 0x54 0x0 0x0 0x0 0x6 0xa 0x3 0x0 0x80 0x0 0x11[0m
[36m2025-08-15 12:39:59.799 DEBUG (MainThread) [pymodbus.logging] recv: 0x0 0x54 0x0 0x0 0x0 0x25 0xa 0x3 0x22 0x13 0x0 0x13 0x0 0x13 0x0 0x13 0x0 0x13 0x0 0x13 0x0 0x13 0x0 0x13 0x0 0x13 0x0 0x13 0x0 0x13 0x0 0x13 0x0 0x13 0x0 0x13 0x0 0x13 0x0 0x13 0x0 0x13 0x0 old_data:  addr=None[0m
[36m2025-08-15 12:39:59.800 DEBUG (MainThread) [pymodbus.logging] Processing: 0x0 0x54 0x0 0x0 0x0 0x25 0xa 0x3 0x22 0x13 0x0 0x13 0x0 0x13 0x0 0x13 0x0 0x13 0x0 0x13 0x0 0x13 0x0 0x13 0x0 0x13 0x0 0x13 0x0 0x13 0x0 0x13 0x0 0x13 0x0 0x13 0x0 0x13 0x0 0x13 0x0 0x13 0x0[0m
[36m2025-08-15 12:39:59.800 DEBUG (MainThread) [pymodbus.logging] decoded PDU function_code(3 sub -1) -> ReadHoldingRegistersResponse(dev_id=0, transaction_id=0, address=0, count=0, bits=[], registers=[4864, 4864, 4864, 4864, 4864, 4864, 4864, 4864, 4864, 4864, 4864, 4864, 4864, 4864, 4864, 4864, 4864], status=1) [0m
[36m2025-08-15 12:39:59.800 DEBUG (MainThread) [pymodbus.logging] Frame advanced, resetting header!![0m
[36m2025-08-15 12:39:59.800 DEBUG (MainThread) [pymodbus.logging] send: 0x0 0x55 0x0 0x0 0x0 0x6 0xa 0x3 0x0 0x94 0x0 0x11[0m
[36m2025-08-15 12:40:00.001 DEBUG (MainThread) [pymodbus.logging] recv: 0x0 0x55 0x0 0x0 0x0 0x25 0xa 0x3 0x22 0x13 0x0 0x13 0x0 0x13 0x0 0x13 0x0 0x13 0x0 0x13 0x0 0x13 0x0 0x13 0x0 0x17 0x0 0x17 0x0 0x17 0x0 0x17 0x0 0x17 0x0 0x17 0x0 0x17 0x0 0x17 0x0 0x17 0x0 old_data:  addr=None[0m
[36m2025-08-15 12:40:00.001 DEBUG (MainThread) [pymodbus.logging] Processing: 0x0 0x55 0x0 0x0 0x0 0x25 0xa 0x3 0x22 0x13 0x0 0x13 0x0 0x13 0x0 0x13 0x0 0x13 0x0 0x13 0x0 0x13 0x0 0x13 0x0 0x17 0x0 0x17 0x0 0x17 0x0 0x17 0x0 0x17 0x0 0x17 0x0 0x17 0x0 0x17 0x0 0x17 0x0[0m
[36m2025-08-15 12:40:00.001 DEBUG (MainThread) [pymodbus.logging] decoded PDU function_code(3 sub -1) -> ReadHoldingRegistersResponse(dev_id=0, transaction_id=0, address=0, count=0, bits=[], registers=[4864, 4864, 4864, 4864, 4864, 4864, 4864, 4864, 5888, 5888, 5888, 5888, 5888, 5888, 5888, 5888, 5888], status=1) [0m
[36m2025-08-15 12:40:00.001 DEBUG (MainThread) [pymodbus.logging] Frame advanced, resetting header!![0m
[36m2025-08-15 12:40:00.002 DEBUG (MainThread) [pymodbus.logging] send: 0x0 0x56 0x0 0x0 0x0 0x6 0xa 0x3 0x0 0xa8 0x0 0xd[0m
[36m2025-08-15 12:40:00.164 DEBUG (MainThread) [pymodbus.logging] recv: 0x0 0x56 0x0 0x0 0x0 0x1d 0xa 0x3 0x1a 0x17 0x0 0x17 0x0 0x17 0x0 0x17 0x0 0x17 0x0 0x17 0x0 0x17 0x0 0x17 0x0 0x17 0x0 0x17 0x0 0x17 0x0 0x17 0x0 0x17 0x0 old_data:  addr=None[0m
[36m2025-08-15 12:40:00.164 DEBUG (MainThread) [pymodbus.logging] Processing: 0x0 0x56 0x0 0x0 0x0 0x1d 0xa 0x3 0x1a 0x17 0x0 0x17 0x0 0x17 0x0 0x17 0x0 0x17 0x0 0x17 0x0 0x17 0x0 0x17 0x0 0x17 0x0 0x17 0x0 0x17 0x0 0x17 0x0 0x17 0x0[0m
[36m2025-08-15 12:40:00.164 DEBUG (MainThread) [pymodbus.logging] decoded PDU function_code(3 sub -1) -> ReadHoldingRegistersResponse(dev_id=0, transaction_id=0, address=0, count=0, bits=[], registers=[5888, 5888, 5888, 5888, 5888, 5888, 5888, 5888, 5888, 5888, 5888, 5888, 5888], status=1) [0m
[36m2025-08-15 12:40:00.164 DEBUG (MainThread) [pymodbus.logging] Frame advanced, resetting header!![0m
[36m2025-08-15 12:40:00.165 DEBUG (MainThread) [pymodbus.logging] send: 0x0 0x57 0x0 0x0 0x0 0x6 0xa 0x3 0x0 0xc0 0x0 0x1[0m
[36m2025-08-15 12:40:00.319 DEBUG (MainThread) [pymodbus.logging] recv: 0x0 0x57 0x0 0x0 0x0 0x5 0xa 0x3 0x2 0x0 0xee old_data:  addr=None[0m
[36m2025-08-15 12:40:00.319 DEBUG (MainThread) [pymodbus.logging] Processing: 0x0 0x57 0x0 0x0 0x0 0x5 0xa 0x3 0x2 0x0 0xee[0m
[36m2025-08-15 12:40:00.319 DEBUG (MainThread) [pymodbus.logging] decoded PDU function_code(3 sub -1) -> ReadHoldingRegistersResponse(dev_id=0, transaction_id=0, address=0, count=0, bits=[], registers=[238], status=1) [0m
[36m2025-08-15 12:40:00.319 DEBUG (MainThread) [pymodbus.logging] Frame advanced, resetting header!![0m
[36m2025-08-15 12:40:00.319 DEBUG (MainThread) [pymodbus.logging] send: 0x0 0x58 0x0 0x0 0x0 0x6 0xa 0x3 0x0 0xf0 0x0 0x1[0m
[36m2025-08-15 12:40:00.500 DEBUG (MainThread) [pymodbus.logging] recv: 0x0 0x58 0x0 0x0 0x0 0x5 0xa 0x3 0x2 0x0 0xd old_data:  addr=None[0m
[36m2025-08-15 12:40:00.500 DEBUG (MainThread) [pymodbus.logging] Processing: 0x0 0x58 0x0 0x0 0x0 0x5 0xa 0x3 0x2 0x0 0xd[0m
[36m2025-08-15 12:40:00.500 DEBUG (MainThread) [pymodbus.logging] decoded PDU function_code(3 sub -1) -> ReadHoldingRegistersResponse(dev_id=0, transaction_id=0, address=0, count=0, bits=[], registers=[13], status=1) [0m
[36m2025-08-15 12:40:00.501 DEBUG (MainThread) [pymodbus.logging] Frame advanced, resetting header!![0m
[36m2025-08-15 12:40:00.501 DEBUG (MainThread) [pymodbus.logging] send: 0x0 0x59 0x0 0x0 0x0 0x6 0xa 0x3 0x1 0x0 0x0 0x2[0m
[36m2025-08-15 12:40:00.683 DEBUG (MainThread) [pymodbus.logging] recv: 0x0 0x59 0x0 0x0 0x0 0x7 0xa 0x3 0x4 0x0 0x66 0x0 0x63 old_data:  addr=None[0m
[36m2025-08-15 12:40:00.683 DEBUG (MainThread) [pymodbus.logging] Processing: 0x0 0x59 0x0 0x0 0x0 0x7 0xa 0x3 0x4 0x0 0x66 0x0 0x63[0m
[36m2025-08-15 12:40:00.683 DEBUG (MainThread) [pymodbus.logging] decoded PDU function_code(3 sub -1) -> ReadHoldingRegistersResponse(dev_id=0, transaction_id=0, address=0, count=0, bits=[], registers=[102, 99], status=1) [0m
[36m2025-08-15 12:40:00.683 DEBUG (MainThread) [pymodbus.logging] Frame advanced, resetting header!![0m
[36m2025-08-15 12:40:00.684 DEBUG (MainThread) [pymodbus.logging] send: 0x0 0x5a 0x0 0x0 0x0 0x6 0xa 0x3 0x5 0x0 0x0 0x4[0m
[36m2025-08-15 12:40:00.888 DEBUG (MainThread) [pymodbus.logging] recv: 0x0 0x5a 0x0 0x0 0x0 0xb 0xa 0x3 0x8 0x5 0xad 0x4 0xe2 0x0 0x0 0x0 0x0 old_data:  addr=None[0m
[36m2025-08-15 12:40:00.888 DEBUG (MainThread) [pymodbus.logging] Processing: 0x0 0x5a 0x0 0x0 0x0 0xb 0xa 0x3 0x8 0x5 0xad 0x4 0xe2 0x0 0x0 0x0 0x0[0m
[36m2025-08-15 12:40:00.888 DEBUG (MainThread) [pymodbus.logging] decoded PDU function_code(3 sub -1) -> ReadHoldingRegistersResponse(dev_id=0, transaction_id=0, address=0, count=0, bits=[], registers=[1453, 1250, 0, 0], status=1) [0m
[36m2025-08-15 12:40:00.888 DEBUG (MainThread) [pymodbus.logging] Frame advanced, resetting header!![0m
[36m2025-08-15 12:40:00.889 DEBUG (MainThread) [pymodbus.logging] send: 0x0 0x5b 0x0 0x0 0x0 0x6 0xa 0x3 0x10 0x15 0x0 0x4[0m
[36m2025-08-15 12:40:01.081 DEBUG (MainThread) [pymodbus.logging] recv: 0x0 0x5b 0x0 0x0 0x0 0xb 0xa 0x3 0x8 0x0 0x77 0x0 0x96 0x0 0x75 0x0 0x96 old_data:  addr=None[0m
[36m2025-08-15 12:40:01.081 DEBUG (MainThread) [pymodbus.logging] Processing: 0x0 0x5b 0x0 0x0 0x0 0xb 0xa 0x3 0x8 0x0 0x77 0x0 0x96 0x0 0x75 0x0 0x96[0m
[36m2025-08-15 12:40:01.081 DEBUG (MainThread) [pymodbus.logging] decoded PDU function_code(3 sub -1) -> ReadHoldingRegistersResponse(dev_id=0, transaction_id=0, address=0, count=0, bits=[], registers=[119, 150, 117, 150], status=1) [0m
[36m2025-08-15 12:40:01.081 DEBUG (MainThread) [pymodbus.logging] Frame advanced, resetting header!![0m
[36m2025-08-15 12:40:01.082 DEBUG (MainThread) [pymodbus.logging] send: 0x0 0x5c 0x0 0x0 0x0 0x6 0xa 0x3 0x10 0x60 0x0 0x11[0m
[36m2025-08-15 12:40:01.284 DEBUG (MainThread) [pymodbus.logging] recv: 0x0 0x5c 0x0 0x0 0x0 0x25 0xa 0x3 0x22 0x0 0x0 0x0 0x0 0x0 0x0 0x0 0x0 0x0 0xf 0x0 0x0 0x0 0x0 0x0 0x0 0x0 0x0 0x0 0x0 0x4f 0xfc 0x0 0x0 0x0 0x0 0x0 0x0 0x0 0x0 0x0 0x0 0x0 0x1 old_data:  addr=None[0m
[36m2025-08-15 12:40:01.285 DEBUG (MainThread) [pymodbus.logging] Processing: 0x0 0x5c 0x0 0x0 0x0 0x25 0xa 0x3 0x22 0x0 0x0 0x0 0x0 0x0 0x0 0x0 0x0 0x0 0xf 0x0 0x0 0x0 0x0 0x0 0x0 0x0 0x0 0x0 0x0 0x4f 0xfc 0x0 0x0 0x0 0x0 0x0 0x0 0x0 0x0 0x0 0x0 0x0 0x1[0m
[36m2025-08-15 12:40:01.285 DEBUG (MainThread) [pymodbus.logging] decoded PDU function_code(3 sub -1) -> ReadHoldingRegistersResponse(dev_id=0, transaction_id=0, address=0, count=0, bits=[], registers=[0, 0, 0, 0, 15, 0, 0, 0, 0, 0, 20476, 0, 0, 0, 0, 0, 1], status=1) [0m
[36m2025-08-15 12:40:01.285 DEBUG (MainThread) [pymodbus.logging] Frame advanced, resetting header!![0m
[36m2025-08-15 12:40:01.285 DEBUG (MainThread) [pymodbus.logging] send: 0x0 0x5d 0x0 0x0 0x0 0x6 0xa 0x3 0x10 0x71 0x0 0x10[0m
[36m2025-08-15 12:40:01.478 DEBUG (MainThread) [pymodbus.logging] recv: 0x0 0x5d 0x0 0x0 0x0 0x23 0xa 0x3 0x20 0x0 0x0 0x0 0x1e 0x0 0x50 0x0 0x2a 0x0 0x2a 0x0 0x0 0x0 0x0 0x0 0x1e 0x0 0x3c 0x0 0x64 0x24 0x0 0x0 0x0 0x0 0x0 0x0 0x0 0x0 0x0 0x0 0x0 old_data:  addr=None[0m
[36m2025-08-15 12:40:01.478 DEBUG (MainThread) [pymodbus.logging] Processing: 0x0 0x5d 0x0 0x0 0x0 0x23 0xa 0x3 0x20 0x0 0x0 0x0 0x1e 0x0 0x50 0x0 0x2a 0x0 0x2a 0x0 0x0 0x0 0x0 0x0 0x1e 0x0 0x3c 0x0 0x64 0x24 0x0 0x0 0x0 0x0 0x0 0x0 0x0 0x0 0x0 0x0 0x0[0m
[36m2025-08-15 12:40:01.478 DEBUG (MainThread) [pymodbus.logging] decoded PDU function_code(3 sub -1) -> ReadHoldingRegistersResponse(dev_id=0, transaction_id=0, address=0, count=0, bits=[], registers=[0, 30, 80, 42, 42, 0, 0, 30, 60, 100, 9216, 0, 0, 0, 0, 0], status=1) [0m
[36m2025-08-15 12:40:01.478 DEBUG (MainThread) [pymodbus.logging] Frame advanced, resetting header!![0m
[36m2025-08-15 12:40:01.479 DEBUG (MainThread) [pymodbus.logging] send: 0x0 0x5e 0x0 0x0 0x0 0x6 0xa 0x3 0x10 0x95 0x0 0x1[0m
[36m2025-08-15 12:40:01.618 DEBUG (MainThread) [pymodbus.logging] recv: 0x0 0x5e 0x0 0x0 0x0 0x5 0xa 0x3 0x2 0x0 0x0 old_data:  addr=None[0m
[36m2025-08-15 12:40:01.618 DEBUG (MainThread) [pymodbus.logging] Processing: 0x0 0x5e 0x0 0x0 0x0 0x5 0xa 0x3 0x2 0x0 0x0[0m
[36m2025-08-15 12:40:01.618 DEBUG (MainThread) [pymodbus.logging] decoded PDU function_code(3 sub -1) -> ReadHoldingRegistersResponse(dev_id=0, transaction_id=0, address=0, count=0, bits=[], registers=[0], status=1) [0m
[36m2025-08-15 12:40:01.618 DEBUG (MainThread) [pymodbus.logging] Frame advanced, resetting header!![0m
[36m2025-08-15 12:40:01.618 DEBUG (MainThread) [pymodbus.logging] send: 0x0 0x5f 0x0 0x0 0x0 0x6 0xa 0x3 0x10 0xa0 0x0 0x10[0m
[36m2025-08-15 12:40:01.830 DEBUG (MainThread) [pymodbus.logging] recv: 0x0 0x5f 0x0 0x0 0x0 0x23 0xa 0x3 0x20 0x0 0x0 0x0 0xa 0x0 0x32 0x0 0x0 0x0 0x0 0x0 0x50 0x0 0x0 0x0 0x0 0x0 0x4 0x0 0x4 0x0 0x0 0x5 0x0 0x17 0x0 0x19 0x0 0x7 0x0 0x0 0x0 old_data:  addr=None[0m
[36m2025-08-15 12:40:01.830 DEBUG (MainThread) [pymodbus.logging] Processing: 0x0 0x5f 0x0 0x0 0x0 0x23 0xa 0x3 0x20 0x0 0x0 0x0 0xa 0x0 0x32 0x0 0x0 0x0 0x0 0x0 0x50 0x0 0x0 0x0 0x0 0x0 0x4 0x0 0x4 0x0 0x0 0x5 0x0 0x17 0x0 0x19 0x0 0x7 0x0 0x0 0x0[0m
[36m2025-08-15 12:40:01.830 DEBUG (MainThread) [pymodbus.logging] decoded PDU function_code(3 sub -1) -> ReadHoldingRegistersResponse(dev_id=0, transaction_id=0, address=0, count=0, bits=[], registers=[0, 10, 50, 0, 0, 80, 0, 0, 4, 4, 0, 1280, 5888, 6400, 1792, 0], status=1) [0m
[36m2025-08-15 12:40:01.830 DEBUG (MainThread) [pymodbus.logging] Frame advanced, resetting header!![0m
[36m2025-08-15 12:40:01.830 DEBUG (MainThread) [pymodbus.logging] send: 0x0 0x60 0x0 0x0 0x0 0x6 0xa 0x3 0x10 0xd0 0x0 0x2[0m
[36m2025-08-15 12:40:01.982 DEBUG (MainThread) [pymodbus.logging] recv: 0x0 0x60 0x0 0x0 0x0 0x7 0xa 0x3 0x4 0x0 0x0 0x0 0x0 old_data:  addr=None[0m
[36m2025-08-15 12:40:01.982 DEBUG (MainThread) [pymodbus.logging] Processing: 0x0 0x60 0x0 0x0 0x0 0x7 0xa 0x3 0x4 0x0 0x0 0x0 0x0[0m
[36m2025-08-15 12:40:01.983 DEBUG (MainThread) [pymodbus.logging] decoded PDU function_code(3 sub -1) -> ReadHoldingRegistersResponse(dev_id=0, transaction_id=0, address=0, count=0, bits=[], registers=[0, 0], status=1) [0m
[36m2025-08-15 12:40:01.983 DEBUG (MainThread) [pymodbus.logging] Frame advanced, resetting header!![0m
[36m2025-08-15 12:40:01.984 DEBUG (MainThread) [pymodbus.logging] send: 0x0 0x61 0x0 0x0 0x0 0x6 0xa 0x3 0x10 0xe0 0x0 0xe[0m
[36m2025-08-15 12:40:02.188 DEBUG (MainThread) [pymodbus.logging] recv: 0x0 0x61 0x0 0x0 0x0 0x1f 0xa 0x3 0x1c 0x0 0x0 0x0 0x14 0x0 0x2e 0x0 0x2e 0x1 0x2c 0x0 0x0 0x0 0x0 0x0 0x0 0x0 0x0 0x0 0x1 0x0 0x0 0x0 0x1 0x0 0x64 0x0 0x5a old_data:  addr=None[0m
[36m2025-08-15 12:40:02.188 DEBUG (MainThread) [pymodbus.logging] Processing: 0x0 0x61 0x0 0x0 0x0 0x1f 0xa 0x3 0x1c 0x0 0x0 0x0 0x14 0x0 0x2e 0x0 0x2e 0x1 0x2c 0x0 0x0 0x0 0x0 0x0 0x0 0x0 0x0 0x0 0x1 0x0 0x0 0x0 0x1 0x0 0x64 0x0 0x5a[0m
[36m2025-08-15 12:40:02.188 DEBUG (MainThread) [pymodbus.logging] decoded PDU function_code(3 sub -1) -> ReadHoldingRegistersResponse(dev_id=0, transaction_id=0, address=0, count=0, bits=[], registers=[0, 20, 46, 46, 300, 0, 0, 0, 0, 1, 0, 1, 100, 90], status=1) [0m
[36m2025-08-15 12:40:02.188 DEBUG (MainThread) [pymodbus.logging] Frame advanced, resetting header!![0m
[36m2025-08-15 12:40:02.189 DEBUG (MainThread) [pymodbus.logging] send: 0x0 0x62 0x0 0x0 0x0 0x6 0xa 0x3 0x11 0x2 0x0 0x4[0m
[36m2025-08-15 12:40:02.367 DEBUG (MainThread) [pymodbus.logging] recv: 0x0 0x62 0x0 0x0 0x0 0xb 0xa 0x3 0x8 0x1 0x4a 0x1 0x4a 0x0 0x6e 0x0 0x6e old_data:  addr=None[0m
[36m2025-08-15 12:40:02.367 DEBUG (MainThread) [pymodbus.logging] Processing: 0x0 0x62 0x0 0x0 0x0 0xb 0xa 0x3 0x8 0x1 0x4a 0x1 0x4a 0x0 0x6e 0x0 0x6e[0m
[36m2025-08-15 12:40:02.367 DEBUG (MainThread) [pymodbus.logging] decoded PDU function_code(3 sub -1) -> ReadHoldingRegistersResponse(dev_id=0, transaction_id=0, address=0, count=0, bits=[], registers=[330, 330, 110, 110], status=1) [0m
[36m2025-08-15 12:40:02.367 DEBUG (MainThread) [pymodbus.logging] Frame advanced, resetting header!![0m
[36m2025-08-15 12:40:02.368 DEBUG (MainThread) [pymodbus.logging] send: 0x0 0x63 0x0 0x0 0x0 0x6 0xa 0x3 0x11 0x20 0x0 0x4[0m
[36m2025-08-15 12:40:02.560 DEBUG (MainThread) [pymodbus.logging] recv: 0x0 0x63 0x0 0x0 0x0 0xb 0xa 0x3 0x8 0x0 0x0 0x0 0x0 0x0 0xb4 0x0 0x1 old_data:  addr=None[0m
[36m2025-08-15 12:40:02.561 DEBUG (MainThread) [pymodbus.logging] Processing: 0x0 0x63 0x0 0x0 0x0 0xb 0xa 0x3 0x8 0x0 0x0 0x0 0x0 0x0 0xb4 0x0 0x1[0m
[36m2025-08-15 12:40:02.561 DEBUG (MainThread) [pymodbus.logging] decoded PDU function_code(3 sub -1) -> ReadHoldingRegistersResponse(dev_id=0, transaction_id=0, address=0, count=0, bits=[], registers=[0, 0, 180, 1], status=1) [0m
[36m2025-08-15 12:40:02.561 DEBUG (MainThread) [pymodbus.logging] Frame advanced, resetting header!![0m
[36m2025-08-15 12:40:02.561 DEBUG (MainThread) [pymodbus.logging] send: 0x0 0x64 0x0 0x0 0x0 0x6 0xa 0x3 0x11 0x2f 0x0 0x10[0m
[36m2025-08-15 12:40:02.757 DEBUG (MainThread) [pymodbus.logging] recv: 0x0 0x64 0x0 0x0 0x0 0x23 0xa 0x3 0x20 0x0 0x0 0x0 0x1 0x0 0x50 0x0 0x0 0x0 0x1 0x0 0x2a 0x0 0x0 0x0 0x0 0x0 0x0 0x0 0x0 0x0 0x0 0x0 0x0 0x0 0x0 0x0 0x0 0x0 0x0 0x0 0x0 old_data:  addr=None[0m
[36m2025-08-15 12:40:02.757 DEBUG (MainThread) [pymodbus.logging] Processing: 0x0 0x64 0x0 0x0 0x0 0x23 0xa 0x3 0x20 0x0 0x0 0x0 0x1 0x0 0x50 0x0 0x0 0x0 0x1 0x0 0x2a 0x0 0x0 0x0 0x0 0x0 0x0 0x0 0x0 0x0 0x0 0x0 0x0 0x0 0x0 0x0 0x0 0x0 0x0 0x0 0x0[0m
[36m2025-08-15 12:40:02.757 DEBUG (MainThread) [pymodbus.logging] decoded PDU function_code(3 sub -1) -> ReadHoldingRegistersResponse(dev_id=0, transaction_id=0, address=0, count=0, bits=[], registers=[0, 1, 80, 0, 1, 42, 0, 0, 0, 0, 0, 0, 0, 0, 0, 0], status=1) [0m
[36m2025-08-15 12:40:02.757 DEBUG (MainThread) [pymodbus.logging] Frame advanced, resetting header!![0m
[36m2025-08-15 12:40:02.758 DEBUG (MainThread) [pymodbus.logging] send: 0x0 0x65 0x0 0x0 0x0 0x6 0xa 0x3 0x11 0x50 0x0 0x2[0m
[36m2025-08-15 12:40:02.927 DEBUG (MainThread) [pymodbus.logging] recv: 0x0 0x65 0x0 0x0 0x0 0x7 0xa 0x3 0x4 0x0 0x0 0x0 0x0 old_data:  addr=None[0m
[36m2025-08-15 12:40:02.928 DEBUG (MainThread) [pymodbus.logging] Processing: 0x0 0x65 0x0 0x0 0x0 0x7 0xa 0x3 0x4 0x0 0x0 0x0 0x0[0m
[36m2025-08-15 12:40:02.928 DEBUG (MainThread) [pymodbus.logging] decoded PDU function_code(3 sub -1) -> ReadHoldingRegistersResponse(dev_id=0, transaction_id=0, address=0, count=0, bits=[], registers=[0, 0], status=1) [0m
[36m2025-08-15 12:40:02.928 DEBUG (MainThread) [pymodbus.logging] Frame advanced, resetting header!![0m
[36m2025-08-15 12:40:02.929 DEBUG (MainThread) [pymodbus.logging] send: 0x0 0x66 0x0 0x0 0x0 0x6 0xa 0x3 0x1f 0xd0 0x0 0x8[0m
[36m2025-08-15 12:40:03.110 DEBUG (MainThread) [pymodbus.logging] recv: 0x0 0x66 0x0 0x0 0x0 0x13 0xa 0x3 0x10 0x0 0x0 0x0 0x0 0x0 0x0 0x0 0x0 0x0 0x0 0x0 0x0 0x0 0x0 0x0 0x0 old_data:  addr=None[0m
[36m2025-08-15 12:40:03.111 DEBUG (MainThread) [pymodbus.logging] Processing: 0x0 0x66 0x0 0x0 0x0 0x13 0xa 0x3 0x10 0x0 0x0 0x0 0x0 0x0 0x0 0x0 0x0 0x0 0x0 0x0 0x0 0x0 0x0 0x0 0x0[0m
[36m2025-08-15 12:40:03.111 DEBUG (MainThread) [pymodbus.logging] decoded PDU function_code(3 sub -1) -> ReadHoldingRegistersResponse(dev_id=0, transaction_id=0, address=0, count=0, bits=[], registers=[0, 0, 0, 0, 0, 0, 0, 0], status=1) [0m
[36m2025-08-15 12:40:03.111 DEBUG (MainThread) [pymodbus.logging] Frame advanced, resetting header!![0m
[36m2025-08-15 12:40:03.111 DEBUG (MainThread) [pymodbus.logging] send: 0x0 0x67 0x0 0x0 0x0 0x6 0xa 0x3 0x20 0xd 0x0 0x11[0m
[36m2025-08-15 12:40:03.311 DEBUG (MainThread) [pymodbus.logging] recv: 0x0 0x67 0x0 0x0 0x0 0x25 0xa 0x3 0x22 0x0 0x0 0x0 0x0 0x0 0x0 0x0 0x0 0x0 0x0 0x0 0x0 0x0 0x0 0x0 0x0 0x0 0x0 0x0 0x0 0x0 0x0 0x0 0x0 0x0 0x0 0x0 0x0 0x0 0x0 0x0 0x0 0x0 0x0 old_data:  addr=None[0m
[36m2025-08-15 12:40:03.311 DEBUG (MainThread) [pymodbus.logging] Processing: 0x0 0x67 0x0 0x0 0x0 0x25 0xa 0x3 0x22 0x0 0x0 0x0 0x0 0x0 0x0 0x0 0x0 0x0 0x0 0x0 0x0 0x0 0x0 0x0 0x0 0x0 0x0 0x0 0x0 0x0 0x0 0x0 0x0 0x0 0x0 0x0 0x0 0x0 0x0 0x0 0x0 0x0 0x0[0m
[36m2025-08-15 12:40:03.311 DEBUG (MainThread) [pymodbus.logging] decoded PDU function_code(3 sub -1) -> ReadHoldingRegistersResponse(dev_id=0, transaction_id=0, address=0, count=0, bits=[], registers=[0, 0, 0, 0, 0, 0, 0, 0, 0, 0, 0, 0, 0, 0, 0, 0, 0], status=1) [0m
[36m2025-08-15 12:40:03.311 DEBUG (MainThread) [pymodbus.logging] Frame advanced, resetting header!![0m
[36m2025-08-15 12:40:03.312 DEBUG (MainThread) [pymodbus.logging] send: 0x0 0x68 0x0 0x0 0x0 0x6 0xa 0x3 0x20 0x1e 0x0 0x3[0m
[36m2025-08-15 12:40:03.463 DEBUG (MainThread) [pymodbus.logging] recv: 0x0 0x68 0x0 0x0 0x0 0x9 0xa 0x3 0x6 0x0 0x0 0x0 0x0 0x0 0x0 old_data:  addr=None[0m
[36m2025-08-15 12:40:03.463 DEBUG (MainThread) [pymodbus.logging] Processing: 0x0 0x68 0x0 0x0 0x0 0x9 0xa 0x3 0x6 0x0 0x0 0x0 0x0 0x0 0x0[0m
[36m2025-08-15 12:40:03.463 DEBUG (MainThread) [pymodbus.logging] decoded PDU function_code(3 sub -1) -> ReadHoldingRegistersResponse(dev_id=0, transaction_id=0, address=0, count=0, bits=[], registers=[0, 0, 0], status=1) [0m
[36m2025-08-15 12:40:03.463 DEBUG (MainThread) [pymodbus.logging] Frame advanced, resetting header!![0m
[36m2025-08-15 12:40:03.464 DEBUG (MainThread) [pymodbus.logging] send: 0x0 0x69 0x0 0x0 0x0 0x6 0xa 0x3 0x20 0x63 0x0 0x8[0m
[36m2025-08-15 12:40:03.655 DEBUG (MainThread) [pymodbus.logging] recv: 0x0 0x69 0x0 0x0 0x0 0x13 0xa 0x3 0x10 0x0 0x0 0x0 0x0 0x0 0x0 0x0 0x0 0x0 0x0 0x0 0x0 0x0 0x0 0x0 0x0 old_data:  addr=None[0m
[36m2025-08-15 12:40:03.655 DEBUG (MainThread) [pymodbus.logging] Processing: 0x0 0x69 0x0 0x0 0x0 0x13 0xa 0x3 0x10 0x0 0x0 0x0 0x0 0x0 0x0 0x0 0x0 0x0 0x0 0x0 0x0 0x0 0x0 0x0 0x0[0m
[36m2025-08-15 12:40:03.655 DEBUG (MainThread) [pymodbus.logging] decoded PDU function_code(3 sub -1) -> ReadHoldingRegistersResponse(dev_id=0, transaction_id=0, address=0, count=0, bits=[], registers=[0, 0, 0, 0, 0, 0, 0, 0], status=1) [0m
[36m2025-08-15 12:40:03.655 DEBUG (MainThread) [pymodbus.logging] Frame advanced, resetting header!![0m
[36m2025-08-15 12:40:03.656 DEBUG (MainThread) [pymodbus.logging] send: 0x0 0x6a 0x0 0x0 0x0 0x6 0xa 0x3 0x20 0x8a 0x0 0x2[0m
[36m2025-08-15 12:40:03.842 DEBUG (MainThread) [pymodbus.logging] recv: 0x0 0x6a 0x0 0x0 0x0 0x7 0xa 0x3 0x4 0x0 0x0 0x0 0x0 old_data:  addr=None[0m
[36m2025-08-15 12:40:03.842 DEBUG (MainThread) [pymodbus.logging] Processing: 0x0 0x6a 0x0 0x0 0x0 0x7 0xa 0x3 0x4 0x0 0x0 0x0 0x0[0m
[36m2025-08-15 12:40:03.843 DEBUG (MainThread) [pymodbus.logging] decoded PDU function_code(3 sub -1) -> ReadHoldingRegistersResponse(dev_id=0, transaction_id=0, address=0, count=0, bits=[], registers=[0, 0], status=1) [0m
[36m2025-08-15 12:40:03.843 DEBUG (MainThread) [pymodbus.logging] Frame advanced, resetting header!![0m
[36m2025-08-15 12:40:03.843 DEBUG (MainThread) [pymodbus.logging] send: 0x0 0x6b 0x0 0x0 0x0 0x6 0xa 0x3 0x20 0x98 0x0 0x1[0m
[36m2025-08-15 12:40:04.032 DEBUG (MainThread) [pymodbus.logging] recv: 0x0 0x6b 0x0 0x0 0x0 0x5 0xa 0x3 0x2 0x0 0x0 old_data:  addr=None[0m
[36m2025-08-15 12:40:04.033 DEBUG (MainThread) [pymodbus.logging] Processing: 0x0 0x6b 0x0 0x0 0x0 0x5 0xa 0x3 0x2 0x0 0x0[0m
[36m2025-08-15 12:40:04.033 DEBUG (MainThread) [pymodbus.logging] decoded PDU function_code(3 sub -1) -> ReadHoldingRegistersResponse(dev_id=0, transaction_id=0, address=0, count=0, bits=[], registers=[0], status=1) [0m
[36m2025-08-15 12:40:04.033 DEBUG (MainThread) [pymodbus.logging] Frame advanced, resetting header!![0m
[36m2025-08-15 12:40:04.033 DEBUG (MainThread) [pymodbus.logging] send: 0x0 0x6c 0x0 0x0 0x0 0x6 0xa 0x3 0x20 0xc6 0x0 0x6[0m
[36m2025-08-15 12:40:04.215 DEBUG (MainThread) [pymodbus.logging] recv: 0x0 0x6c 0x0 0x0 0x0 0xf 0xa 0x3 0xc 0x0 0x0 0x0 0x0 0x0 0x0 0x0 0x0 0x0 0x0 0x0 0x0 old_data:  addr=None[0m
[36m2025-08-15 12:40:04.215 DEBUG (MainThread) [pymodbus.logging] Processing: 0x0 0x6c 0x0 0x0 0x0 0xf 0xa 0x3 0xc 0x0 0x0 0x0 0x0 0x0 0x0 0x0 0x0 0x0 0x0 0x0 0x0[0m
[36m2025-08-15 12:40:04.215 DEBUG (MainThread) [pymodbus.logging] decoded PDU function_code(3 sub -1) -> ReadHoldingRegistersResponse(dev_id=0, transaction_id=0, address=0, count=0, bits=[], registers=[0, 0, 0, 0, 0, 0], status=1) [0m
[36m2025-08-15 12:40:04.215 DEBUG (MainThread) [pymodbus.logging] Frame advanced, resetting header!![0m
[36m2025-08-15 12:40:04.216 DEBUG (MainThread) [pymodbus.logging] send: 0x0 0x6d 0x0 0x0 0x0 0x6 0xa 0x3 0x20 0xf9 0x0 0x4[0m
[36m2025-08-15 12:40:04.412 DEBUG (MainThread) [pymodbus.logging] recv: 0x0 0x6d 0x0 0x0 0x0 0xb 0xa 0x3 0x8 0x0 0x0 0x0 0x0 0x0 0x0 0x0 0x0 old_data:  addr=None[0m
[36m2025-08-15 12:40:04.413 DEBUG (MainThread) [pymodbus.logging] Processing: 0x0 0x6d 0x0 0x0 0x0 0xb 0xa 0x3 0x8 0x0 0x0 0x0 0x0 0x0 0x0 0x0 0x0[0m
[36m2025-08-15 12:40:04.413 DEBUG (MainThread) [pymodbus.logging] decoded PDU function_code(3 sub -1) -> ReadHoldingRegistersResponse(dev_id=0, transaction_id=0, address=0, count=0, bits=[], registers=[0, 0, 0, 0], status=1) [0m
[36m2025-08-15 12:40:04.413 DEBUG (MainThread) [pymodbus.logging] Frame advanced, resetting header!![0m
[36m2025-08-15 12:40:04.413 DEBUG (MainThread) [pymodbus.logging] send: 0x0 0x6e 0x0 0x0 0x0 0x6 0xa 0x1 0x0 0x5 0x0 0xb[0m
[36m2025-08-15 12:40:04.578 DEBUG (MainThread) [pymodbus.logging] recv: 0x0 0x6e 0x0 0x0 0x0 0x5 0xa 0x1 0x2 0x42 0x0 old_data:  addr=None[0m
[36m2025-08-15 12:40:04.578 DEBUG (MainThread) [pymodbus.logging] Processing: 0x0 0x6e 0x0 0x0 0x0 0x5 0xa 0x1 0x2 0x42 0x0[0m
[36m2025-08-15 12:40:04.579 DEBUG (MainThread) [pymodbus.logging] decoded PDU function_code(1 sub -1) -> ReadCoilsResponse(dev_id=0, transaction_id=0, address=0, count=0, bits=[False, True, False, False, False, False, True, False, False, False, False, False, False, False, False, False], registers=[], status=1) [0m
[36m2025-08-15 12:40:04.579 DEBUG (MainThread) [pymodbus.logging] Frame advanced, resetting header!![0m
[36m2025-08-15 12:40:04.579 DEBUG (MainThread) [pymodbus.logging] send: 0x0 0x6f 0x0 0x0 0x0 0x6 0xa 0x2 0x0 0x0 0x0 0x10[0m
[36m2025-08-15 12:40:04.756 DEBUG (MainThread) [pymodbus.logging] recv: 0x0 0x6f 0x0 0x0 0x0 0x5 0xa 0x2 0x2 0x1c 0xc3 old_data:  addr=None[0m
[36m2025-08-15 12:40:04.756 DEBUG (MainThread) [pymodbus.logging] Processing: 0x0 0x6f 0x0 0x0 0x0 0x5 0xa 0x2 0x2 0x1c 0xc3[0m
[36m2025-08-15 12:40:04.756 DEBUG (MainThread) [pymodbus.logging] decoded PDU function_code(2 sub -1) -> ReadDiscreteInputsResponse(dev_id=0, transaction_id=0, address=0, count=0, bits=[False, False, True, True, True, False, False, False, True, True, False, False, False, False, True, True], registers=[], status=1) [0m
[36m2025-08-15 12:40:04.756 DEBUG (MainThread) [pymodbus.logging] Frame advanced, resetting header!![0m
[36m2025-08-15 12:40:04.757 DEBUG (MainThread) [pymodbus.logging] send: 0x0 0x70 0x0 0x0 0x0 0x6 0xa 0x2 0x0 0x12 0x0 0x4[0m
[36m2025-08-15 12:40:04.935 DEBUG (MainThread) [pymodbus.logging] recv: 0x0 0x70 0x0 0x0 0x0 0x4 0xa 0x2 0x1 0x0 old_data:  addr=None[0m
[36m2025-08-15 12:40:04.936 DEBUG (MainThread) [pymodbus.logging] Processing: 0x0 0x70 0x0 0x0 0x0 0x4 0xa 0x2 0x1 0x0[0m
[36m2025-08-15 12:40:04.936 DEBUG (MainThread) [pymodbus.logging] decoded PDU function_code(2 sub -1) -> ReadDiscreteInputsResponse(dev_id=0, transaction_id=0, address=0, count=0, bits=[False, False, False, False, False, False, False, False], registers=[], status=1) [0m
[36m2025-08-15 12:40:04.936 DEBUG (MainThread) [pymodbus.logging] Frame advanced, resetting header!![0m
[36m2025-08-15 12:40:04.937 DEBUG (MainThread) [custom_components.thessla_green_modbus.coordinator] Data update successful: 268 values read in 6.78s[0m
[36m2025-08-15 12:40:04.937 DEBUG (MainThread) [custom_components.thessla_green_modbus.coordinator] Finished fetching thessla_green_modbus_ThesslaGreen data in 6.781 seconds (success: True)[0m
[33m2025-08-15 12:40:13.569 WARNING (Recorder) [homeassistant.components.sensor.recorder] The unit of sensor.thesslagreen_max_supply_airflow (%) cannot be converted to the unit of previously compiled statistics (m³/h). Generation of long term statistics will be suppressed unless the unit changes back to m³/h or a compatible unit. Go to https://my.home-assistant.io/redirect/developer_statistics to fix this[0m
[33m2025-08-15 12:40:13.570 WARNING (Recorder) [homeassistant.components.sensor.recorder] The unit of sensor.thesslagreen_max_exhaust_airflow (%) cannot be converted to the unit of previously compiled statistics (m³/h). Generation of long term statistics will be suppressed unless the unit changes back to m³/h or a compatible unit. Go to https://my.home-assistant.io/redirect/developer_statistics to fix this[0m
[33m2025-08-15 12:40:13.570 WARNING (Recorder) [homeassistant.components.sensor.recorder] The unit of sensor.thesslagreen_manual_airflow_rate (%) cannot be converted to the unit of previously compiled statistics (m³/h). Generation of long term statistics will be suppressed unless the unit changes back to m³/h or a compatible unit. Go to https://my.home-assistant.io/redirect/developer_statistics to fix this[0m
[33m2025-08-15 12:40:20.034 WARNING (MainThread) [py.warnings] /usr/local/lib/python3.13/site-packages/gql/transport/aiohttp.py:92: UserWarning: WARNING: By default, AIOHTTPTransport does not verify ssl certificates. This will be fixed in the next major version. You can set ssl=True to force the ssl certificate verification or ssl=False to disable this warning
  warnings.warn(
[0m
[36m2025-08-15 12:40:35.157 DEBUG (MainThread) [pymodbus.logging] send: 0x0 0x71 0x0 0x0 0x0 0x6 0xa 0x4 0x1 0xf 0x0 0x7[0m
[36m2025-08-15 12:40:35.275 DEBUG (MainThread) [pymodbus.logging] recv: 0x0 0x71 0x0 0x0 0x0 0x11 0xa 0x4 0xe 0x0 0x1 0x0 0x1e 0x0 0x1e 0x0 0x63 0x0 0x63 0x0 0xa 0x0 0x6d old_data:  addr=None[0m
[36m2025-08-15 12:40:35.275 DEBUG (MainThread) [pymodbus.logging] Processing: 0x0 0x71 0x0 0x0 0x0 0x11 0xa 0x4 0xe 0x0 0x1 0x0 0x1e 0x0 0x1e 0x0 0x63 0x0 0x63 0x0 0xa 0x0 0x6d[0m
[36m2025-08-15 12:40:35.275 DEBUG (MainThread) [pymodbus.logging] decoded PDU function_code(4 sub -1) -> ReadInputRegistersResponse(dev_id=0, transaction_id=0, address=0, count=0, bits=[], registers=[1, 30, 30, 99, 99, 10, 109], status=1) [0m
[36m2025-08-15 12:40:35.275 DEBUG (MainThread) [pymodbus.logging] Frame advanced, resetting header!![0m
[36m2025-08-15 12:40:35.276 DEBUG (MainThread) [pymodbus.logging] send: 0x0 0x72 0x0 0x0 0x0 0x6 0xa 0x3 0x0 0x10 0x0 0x10[0m
[36m2025-08-15 12:40:35.493 DEBUG (MainThread) [pymodbus.logging] recv: 0x0 0x72 0x0 0x0 0x0 0x23 0xa 0x3 0x20 0x4 0x0 0x6 0x0 0x13 0x0 0x15 0x0 0x4 0x0 0x6 0x0 0x13 0x0 0x15 0x0 0x4 0x0 0x6 0x0 0x13 0x0 0x15 0x0 0x4 0x0 0x6 0x0 0x13 0x0 0x15 0x0 old_data:  addr=None[0m
[36m2025-08-15 12:40:35.493 DEBUG (MainThread) [pymodbus.logging] Processing: 0x0 0x72 0x0 0x0 0x0 0x23 0xa 0x3 0x20 0x4 0x0 0x6 0x0 0x13 0x0 0x15 0x0 0x4 0x0 0x6 0x0 0x13 0x0 0x15 0x0 0x4 0x0 0x6 0x0 0x13 0x0 0x15 0x0 0x4 0x0 0x6 0x0 0x13 0x0 0x15 0x0[0m
[36m2025-08-15 12:40:35.494 DEBUG (MainThread) [pymodbus.logging] decoded PDU function_code(3 sub -1) -> ReadHoldingRegistersResponse(dev_id=0, transaction_id=0, address=0, count=0, bits=[], registers=[1024, 1536, 4864, 5376, 1024, 1536, 4864, 5376, 1024, 1536, 4864, 5376, 1024, 1536, 4864, 5376], status=1) [0m
[36m2025-08-15 12:40:35.494 DEBUG (MainThread) [pymodbus.logging] Frame advanced, resetting header!![0m
[36m2025-08-15 12:40:35.494 DEBUG (MainThread) [pymodbus.logging] send: 0x0 0x73 0x0 0x0 0x0 0x6 0xa 0x3 0x0 0x20 0x0 0x10[0m
[36m2025-08-15 12:40:35.666 DEBUG (MainThread) [pymodbus.logging] recv: 0x0 0x73 0x0 0x0 0x0 0x23 0xa 0x3 0x20 0x4 0x0 0x6 0x0 0x13 0x0 0x15 0x0 0x4 0x0 0x6 0x0 0x13 0x0 0x15 0x0 0x4 0x0 0x6 0x0 0x13 0x0 0x15 0x0 0x8 0x0 0x8 0x30 0x16 0x0 0x22 0x0 old_data:  addr=None[0m
[36m2025-08-15 12:40:35.666 DEBUG (MainThread) [pymodbus.logging] Processing: 0x0 0x73 0x0 0x0 0x0 0x23 0xa 0x3 0x20 0x4 0x0 0x6 0x0 0x13 0x0 0x15 0x0 0x4 0x0 0x6 0x0 0x13 0x0 0x15 0x0 0x4 0x0 0x6 0x0 0x13 0x0 0x15 0x0 0x8 0x0 0x8 0x30 0x16 0x0 0x22 0x0[0m
[36m2025-08-15 12:40:35.666 DEBUG (MainThread) [pymodbus.logging] decoded PDU function_code(3 sub -1) -> ReadHoldingRegistersResponse(dev_id=0, transaction_id=0, address=0, count=0, bits=[], registers=[1024, 1536, 4864, 5376, 1024, 1536, 4864, 5376, 1024, 1536, 4864, 5376, 2048, 2096, 5632, 8704], status=1) [0m
[36m2025-08-15 12:40:35.666 DEBUG (MainThread) [pymodbus.logging] Frame advanced, resetting header!![0m
[36m2025-08-15 12:40:35.667 DEBUG (MainThread) [pymodbus.logging] send: 0x0 0x74 0x0 0x0 0x0 0x6 0xa 0x3 0x0 0x30 0x0 0x10[0m
[36m2025-08-15 12:40:35.845 DEBUG (MainThread) [pymodbus.logging] recv: 0x0 0x74 0x0 0x0 0x0 0x23 0xa 0x3 0x20 0x8 0x0 0x8 0x30 0x16 0x0 0x22 0x0 0x8 0x0 0x8 0x30 0x16 0x0 0x22 0x0 0x8 0x0 0x8 0x30 0x16 0x0 0x22 0x0 0x8 0x0 0x8 0x30 0x16 0x0 0x22 0x0 old_data:  addr=None[0m
[36m2025-08-15 12:40:35.845 DEBUG (MainThread) [pymodbus.logging] Processing: 0x0 0x74 0x0 0x0 0x0 0x23 0xa 0x3 0x20 0x8 0x0 0x8 0x30 0x16 0x0 0x22 0x0 0x8 0x0 0x8 0x30 0x16 0x0 0x22 0x0 0x8 0x0 0x8 0x30 0x16 0x0 0x22 0x0 0x8 0x0 0x8 0x30 0x16 0x0 0x22 0x0[0m
[36m2025-08-15 12:40:35.846 DEBUG (MainThread) [pymodbus.logging] decoded PDU function_code(3 sub -1) -> ReadHoldingRegistersResponse(dev_id=0, transaction_id=0, address=0, count=0, bits=[], registers=[2048, 2096, 5632, 8704, 2048, 2096, 5632, 8704, 2048, 2096, 5632, 8704, 2048, 2096, 5632, 8704], status=1) [0m
[36m2025-08-15 12:40:35.846 DEBUG (MainThread) [pymodbus.logging] Frame advanced, resetting header!![0m
[36m2025-08-15 12:40:35.846 DEBUG (MainThread) [pymodbus.logging] send: 0x0 0x75 0x0 0x0 0x0 0x6 0xa 0x3 0x0 0x40 0x0 0x10[0m
[36m2025-08-15 12:40:36.026 DEBUG (MainThread) [pymodbus.logging] recv: 0x0 0x75 0x0 0x0 0x0 0x23 0xa 0x3 0x20 0x8 0x0 0x8 0x30 0x16 0x0 0x22 0x0 0x8 0x0 0x8 0x30 0x16 0x0 0x22 0x0 0x32 0x2c 0xa 0x0 0x32 0x0 0xa 0x0 0x32 0x2c 0xa 0x0 0x32 0x0 0xa 0x0 old_data:  addr=None[0m
[36m2025-08-15 12:40:36.026 DEBUG (MainThread) [pymodbus.logging] Processing: 0x0 0x75 0x0 0x0 0x0 0x23 0xa 0x3 0x20 0x8 0x0 0x8 0x30 0x16 0x0 0x22 0x0 0x8 0x0 0x8 0x30 0x16 0x0 0x22 0x0 0x32 0x2c 0xa 0x0 0x32 0x0 0xa 0x0 0x32 0x2c 0xa 0x0 0x32 0x0 0xa 0x0[0m
[36m2025-08-15 12:40:36.026 DEBUG (MainThread) [pymodbus.logging] decoded PDU function_code(3 sub -1) -> ReadHoldingRegistersResponse(dev_id=0, transaction_id=0, address=0, count=0, bits=[], registers=[2048, 2096, 5632, 8704, 2048, 2096, 5632, 8704, 12844, 2560, 12800, 2560, 12844, 2560, 12800, 2560], status=1) [0m
[36m2025-08-15 12:40:36.027 DEBUG (MainThread) [pymodbus.logging] Frame advanced, resetting header!![0m
[36m2025-08-15 12:40:36.027 DEBUG (MainThread) [pymodbus.logging] send: 0x0 0x76 0x0 0x0 0x0 0x6 0xa 0x3 0x0 0x50 0x0 0x10[0m
[36m2025-08-15 12:40:36.207 DEBUG (MainThread) [pymodbus.logging] recv: 0x0 0x76 0x0 0x0 0x0 0x23 0xa 0x3 0x20 0x32 0x2c 0xa 0x0 0x32 0x0 0xa 0x0 0x32 0x2c 0xa 0x0 0x32 0x0 0xa 0x0 0x32 0x2c 0xa 0x0 0x32 0x0 0xa 0x0 0x32 0x2c 0xa 0x0 0x32 0x0 0xa 0x0 old_data:  addr=None[0m
[36m2025-08-15 12:40:36.207 DEBUG (MainThread) [pymodbus.logging] Processing: 0x0 0x76 0x0 0x0 0x0 0x23 0xa 0x3 0x20 0x32 0x2c 0xa 0x0 0x32 0x0 0xa 0x0 0x32 0x2c 0xa 0x0 0x32 0x0 0xa 0x0 0x32 0x2c 0xa 0x0 0x32 0x0 0xa 0x0 0x32 0x2c 0xa 0x0 0x32 0x0 0xa 0x0[0m
[36m2025-08-15 12:40:36.207 DEBUG (MainThread) [pymodbus.logging] decoded PDU function_code(3 sub -1) -> ReadHoldingRegistersResponse(dev_id=0, transaction_id=0, address=0, count=0, bits=[], registers=[12844, 2560, 12800, 2560, 12844, 2560, 12800, 2560, 12844, 2560, 12800, 2560, 12844, 2560, 12800, 2560], status=1) [0m
[36m2025-08-15 12:40:36.207 DEBUG (MainThread) [pymodbus.logging] Frame advanced, resetting header!![0m
[36m2025-08-15 12:40:36.208 DEBUG (MainThread) [pymodbus.logging] send: 0x0 0x77 0x0 0x0 0x0 0x6 0xa 0x3 0x0 0x60 0x0 0x10[0m
[36m2025-08-15 12:40:36.408 DEBUG (MainThread) [pymodbus.logging] recv: 0x0 0x77 0x0 0x0 0x0 0x23 0xa 0x3 0x20 0x32 0x2c 0xa 0x0 0x32 0x0 0xa 0x0 0x46 0x28 0xa 0x28 0xa 0x28 0xa 0x28 0x46 0x28 0xa 0x28 0xa 0x28 0xa 0x28 0x46 0x28 0xa 0x28 0xa 0x28 0xa 0x28 old_data:  addr=None[0m
[36m2025-08-15 12:40:36.408 DEBUG (MainThread) [pymodbus.logging] Processing: 0x0 0x77 0x0 0x0 0x0 0x23 0xa 0x3 0x20 0x32 0x2c 0xa 0x0 0x32 0x0 0xa 0x0 0x46 0x28 0xa 0x28 0xa 0x28 0xa 0x28 0x46 0x28 0xa 0x28 0xa 0x28 0xa 0x28 0x46 0x28 0xa 0x28 0xa 0x28 0xa 0x28[0m
[36m2025-08-15 12:40:36.408 DEBUG (MainThread) [pymodbus.logging] decoded PDU function_code(3 sub -1) -> ReadHoldingRegistersResponse(dev_id=0, transaction_id=0, address=0, count=0, bits=[], registers=[12844, 2560, 12800, 2560, 17960, 2600, 2600, 2600, 17960, 2600, 2600, 2600, 17960, 2600, 2600, 2600], status=1) [0m
[36m2025-08-15 12:40:36.408 DEBUG (MainThread) [pymodbus.logging] Frame advanced, resetting header!![0m
[36m2025-08-15 12:40:36.409 DEBUG (MainThread) [pymodbus.logging] send: 0x0 0x78 0x0 0x0 0x0 0x6 0xa 0x3 0x0 0x70 0x0 0x10[0m
[36m2025-08-15 12:40:36.601 DEBUG (MainThread) [pymodbus.logging] recv: 0x0 0x78 0x0 0x0 0x0 0x23 0xa 0x3 0x20 0x46 0x28 0xa 0x28 0xa 0x28 0xa 0x28 0x46 0x28 0xa 0x28 0xa 0x28 0xa 0x28 0x46 0x28 0xa 0x28 0xa 0x28 0xa 0x28 0x46 0x28 0xa 0x28 0xa 0x28 0xa 0x28 old_data:  addr=None[0m
[36m2025-08-15 12:40:36.601 DEBUG (MainThread) [pymodbus.logging] Processing: 0x0 0x78 0x0 0x0 0x0 0x23 0xa 0x3 0x20 0x46 0x28 0xa 0x28 0xa 0x28 0xa 0x28 0x46 0x28 0xa 0x28 0xa 0x28 0xa 0x28 0x46 0x28 0xa 0x28 0xa 0x28 0xa 0x28 0x46 0x28 0xa 0x28 0xa 0x28 0xa 0x28[0m
[36m2025-08-15 12:40:36.602 DEBUG (MainThread) [pymodbus.logging] decoded PDU function_code(3 sub -1) -> ReadHoldingRegistersResponse(dev_id=0, transaction_id=0, address=0, count=0, bits=[], registers=[17960, 2600, 2600, 2600, 17960, 2600, 2600, 2600, 17960, 2600, 2600, 2600, 17960, 2600, 2600, 2600], status=1) [0m
[36m2025-08-15 12:40:36.602 DEBUG (MainThread) [pymodbus.logging] Frame advanced, resetting header!![0m
[36m2025-08-15 12:40:36.602 DEBUG (MainThread) [pymodbus.logging] send: 0x0 0x79 0x0 0x0 0x0 0x6 0xa 0x3 0x0 0x80 0x0 0x11[0m
[36m2025-08-15 12:40:36.776 DEBUG (MainThread) [pymodbus.logging] recv: 0x0 0x79 0x0 0x0 0x0 0x25 0xa 0x3 0x22 0x13 0x0 0x13 0x0 0x13 0x0 0x13 0x0 0x13 0x0 0x13 0x0 0x13 0x0 0x13 0x0 0x13 0x0 0x13 0x0 0x13 0x0 0x13 0x0 0x13 0x0 0x13 0x0 0x13 0x0 0x13 0x0 0x13 0x0 old_data:  addr=None[0m
[36m2025-08-15 12:40:36.776 DEBUG (MainThread) [pymodbus.logging] Processing: 0x0 0x79 0x0 0x0 0x0 0x25 0xa 0x3 0x22 0x13 0x0 0x13 0x0 0x13 0x0 0x13 0x0 0x13 0x0 0x13 0x0 0x13 0x0 0x13 0x0 0x13 0x0 0x13 0x0 0x13 0x0 0x13 0x0 0x13 0x0 0x13 0x0 0x13 0x0 0x13 0x0 0x13 0x0[0m
[36m2025-08-15 12:40:36.776 DEBUG (MainThread) [pymodbus.logging] decoded PDU function_code(3 sub -1) -> ReadHoldingRegistersResponse(dev_id=0, transaction_id=0, address=0, count=0, bits=[], registers=[4864, 4864, 4864, 4864, 4864, 4864, 4864, 4864, 4864, 4864, 4864, 4864, 4864, 4864, 4864, 4864, 4864], status=1) [0m
[36m2025-08-15 12:40:36.776 DEBUG (MainThread) [pymodbus.logging] Frame advanced, resetting header!![0m
[36m2025-08-15 12:40:36.777 DEBUG (MainThread) [pymodbus.logging] send: 0x0 0x7a 0x0 0x0 0x0 0x6 0xa 0x3 0x0 0x94 0x0 0x11[0m
[36m2025-08-15 12:40:36.975 DEBUG (MainThread) [pymodbus.logging] recv: 0x0 0x7a 0x0 0x0 0x0 0x25 0xa 0x3 0x22 0x13 0x0 0x13 0x0 0x13 0x0 0x13 0x0 0x13 0x0 0x13 0x0 0x13 0x0 0x13 0x0 0x17 0x0 0x17 0x0 0x17 0x0 0x17 0x0 0x17 0x0 0x17 0x0 0x17 0x0 0x17 0x0 0x17 0x0 old_data:  addr=None[0m
[36m2025-08-15 12:40:36.975 DEBUG (MainThread) [pymodbus.logging] Processing: 0x0 0x7a 0x0 0x0 0x0 0x25 0xa 0x3 0x22 0x13 0x0 0x13 0x0 0x13 0x0 0x13 0x0 0x13 0x0 0x13 0x0 0x13 0x0 0x13 0x0 0x17 0x0 0x17 0x0 0x17 0x0 0x17 0x0 0x17 0x0 0x17 0x0 0x17 0x0 0x17 0x0 0x17 0x0[0m
[36m2025-08-15 12:40:36.975 DEBUG (MainThread) [pymodbus.logging] decoded PDU function_code(3 sub -1) -> ReadHoldingRegistersResponse(dev_id=0, transaction_id=0, address=0, count=0, bits=[], registers=[4864, 4864, 4864, 4864, 4864, 4864, 4864, 4864, 5888, 5888, 5888, 5888, 5888, 5888, 5888, 5888, 5888], status=1) [0m
[36m2025-08-15 12:40:36.976 DEBUG (MainThread) [pymodbus.logging] Frame advanced, resetting header!![0m
[36m2025-08-15 12:40:36.976 DEBUG (MainThread) [pymodbus.logging] send: 0x0 0x7b 0x0 0x0 0x0 0x6 0xa 0x3 0x0 0xa8 0x0 0xd[0m
[36m2025-08-15 12:40:37.138 DEBUG (MainThread) [pymodbus.logging] recv: 0x0 0x7b 0x0 0x0 0x0 0x1d 0xa 0x3 0x1a 0x17 0x0 0x17 0x0 0x17 0x0 0x17 0x0 0x17 0x0 0x17 0x0 0x17 0x0 0x17 0x0 0x17 0x0 0x17 0x0 0x17 0x0 0x17 0x0 0x17 0x0 old_data:  addr=None[0m
[36m2025-08-15 12:40:37.138 DEBUG (MainThread) [pymodbus.logging] Processing: 0x0 0x7b 0x0 0x0 0x0 0x1d 0xa 0x3 0x1a 0x17 0x0 0x17 0x0 0x17 0x0 0x17 0x0 0x17 0x0 0x17 0x0 0x17 0x0 0x17 0x0 0x17 0x0 0x17 0x0 0x17 0x0 0x17 0x0 0x17 0x0[0m
[36m2025-08-15 12:40:37.139 DEBUG (MainThread) [pymodbus.logging] decoded PDU function_code(3 sub -1) -> ReadHoldingRegistersResponse(dev_id=0, transaction_id=0, address=0, count=0, bits=[], registers=[5888, 5888, 5888, 5888, 5888, 5888, 5888, 5888, 5888, 5888, 5888, 5888, 5888], status=1) [0m
[36m2025-08-15 12:40:37.139 DEBUG (MainThread) [pymodbus.logging] Frame advanced, resetting header!![0m
[36m2025-08-15 12:40:37.139 DEBUG (MainThread) [pymodbus.logging] send: 0x0 0x7c 0x0 0x0 0x0 0x6 0xa 0x3 0x0 0xc0 0x0 0x1[0m
[36m2025-08-15 12:40:37.295 DEBUG (MainThread) [pymodbus.logging] recv: 0x0 0x7c 0x0 0x0 0x0 0x5 0xa 0x3 0x2 0x0 0xee old_data:  addr=None[0m
[36m2025-08-15 12:40:37.295 DEBUG (MainThread) [pymodbus.logging] Processing: 0x0 0x7c 0x0 0x0 0x0 0x5 0xa 0x3 0x2 0x0 0xee[0m
[36m2025-08-15 12:40:37.296 DEBUG (MainThread) [pymodbus.logging] decoded PDU function_code(3 sub -1) -> ReadHoldingRegistersResponse(dev_id=0, transaction_id=0, address=0, count=0, bits=[], registers=[238], status=1) [0m
[36m2025-08-15 12:40:37.296 DEBUG (MainThread) [pymodbus.logging] Frame advanced, resetting header!![0m
[36m2025-08-15 12:40:37.296 DEBUG (MainThread) [pymodbus.logging] send: 0x0 0x7d 0x0 0x0 0x0 0x6 0xa 0x3 0x0 0xf0 0x0 0x1[0m
[36m2025-08-15 12:40:37.476 DEBUG (MainThread) [pymodbus.logging] recv: 0x0 0x7d 0x0 0x0 0x0 0x5 0xa 0x3 0x2 0x0 0xd old_data:  addr=None[0m
[36m2025-08-15 12:40:37.476 DEBUG (MainThread) [pymodbus.logging] Processing: 0x0 0x7d 0x0 0x0 0x0 0x5 0xa 0x3 0x2 0x0 0xd[0m
[36m2025-08-15 12:40:37.476 DEBUG (MainThread) [pymodbus.logging] decoded PDU function_code(3 sub -1) -> ReadHoldingRegistersResponse(dev_id=0, transaction_id=0, address=0, count=0, bits=[], registers=[13], status=1) [0m
[36m2025-08-15 12:40:37.477 DEBUG (MainThread) [pymodbus.logging] Frame advanced, resetting header!![0m
[36m2025-08-15 12:40:37.477 DEBUG (MainThread) [pymodbus.logging] send: 0x0 0x7e 0x0 0x0 0x0 0x6 0xa 0x3 0x1 0x0 0x0 0x2[0m
[36m2025-08-15 12:40:37.658 DEBUG (MainThread) [pymodbus.logging] recv: 0x0 0x7e 0x0 0x0 0x0 0x7 0xa 0x3 0x4 0x0 0x66 0x0 0x63 old_data:  addr=None[0m
[36m2025-08-15 12:40:37.658 DEBUG (MainThread) [pymodbus.logging] Processing: 0x0 0x7e 0x0 0x0 0x0 0x7 0xa 0x3 0x4 0x0 0x66 0x0 0x63[0m
[36m2025-08-15 12:40:37.658 DEBUG (MainThread) [pymodbus.logging] decoded PDU function_code(3 sub -1) -> ReadHoldingRegistersResponse(dev_id=0, transaction_id=0, address=0, count=0, bits=[], registers=[102, 99], status=1) [0m
[36m2025-08-15 12:40:37.659 DEBUG (MainThread) [pymodbus.logging] Frame advanced, resetting header!![0m
[36m2025-08-15 12:40:37.659 DEBUG (MainThread) [pymodbus.logging] send: 0x0 0x7f 0x0 0x0 0x0 0x6 0xa 0x3 0x5 0x0 0x0 0x4[0m
[36m2025-08-15 12:40:37.869 DEBUG (MainThread) [pymodbus.logging] recv: 0x0 0x7f 0x0 0x0 0x0 0xb 0xa 0x3 0x8 0x5 0xad 0x4 0xe2 0x0 0x0 0x0 0x0 old_data:  addr=None[0m
[36m2025-08-15 12:40:37.869 DEBUG (MainThread) [pymodbus.logging] Processing: 0x0 0x7f 0x0 0x0 0x0 0xb 0xa 0x3 0x8 0x5 0xad 0x4 0xe2 0x0 0x0 0x0 0x0[0m
[36m2025-08-15 12:40:37.869 DEBUG (MainThread) [pymodbus.logging] decoded PDU function_code(3 sub -1) -> ReadHoldingRegistersResponse(dev_id=0, transaction_id=0, address=0, count=0, bits=[], registers=[1453, 1250, 0, 0], status=1) [0m
[36m2025-08-15 12:40:37.870 DEBUG (MainThread) [pymodbus.logging] Frame advanced, resetting header!![0m
[36m2025-08-15 12:40:37.875 DEBUG (MainThread) [pymodbus.logging] send: 0x0 0x80 0x0 0x0 0x0 0x6 0xa 0x3 0x10 0x15 0x0 0x4[0m
[36m2025-08-15 12:40:38.056 DEBUG (MainThread) [pymodbus.logging] recv: 0x0 0x80 0x0 0x0 0x0 0xb 0xa 0x3 0x8 0x0 0x77 0x0 0x96 0x0 0x75 0x0 0x96 old_data:  addr=None[0m
[36m2025-08-15 12:40:38.056 DEBUG (MainThread) [pymodbus.logging] Processing: 0x0 0x80 0x0 0x0 0x0 0xb 0xa 0x3 0x8 0x0 0x77 0x0 0x96 0x0 0x75 0x0 0x96[0m
[36m2025-08-15 12:40:38.056 DEBUG (MainThread) [pymodbus.logging] decoded PDU function_code(3 sub -1) -> ReadHoldingRegistersResponse(dev_id=0, transaction_id=0, address=0, count=0, bits=[], registers=[119, 150, 117, 150], status=1) [0m
[36m2025-08-15 12:40:38.056 DEBUG (MainThread) [pymodbus.logging] Frame advanced, resetting header!![0m
[36m2025-08-15 12:40:38.057 DEBUG (MainThread) [pymodbus.logging] send: 0x0 0x81 0x0 0x0 0x0 0x6 0xa 0x3 0x10 0x60 0x0 0x11[0m
[36m2025-08-15 12:40:38.256 DEBUG (MainThread) [pymodbus.logging] recv: 0x0 0x81 0x0 0x0 0x0 0x25 0xa 0x3 0x22 0x0 0x0 0x0 0x0 0x0 0x0 0x0 0x0 0x0 0xf 0x0 0x0 0x0 0x0 0x0 0x0 0x0 0x0 0x0 0x0 0x4f 0xfc 0x0 0x0 0x0 0x0 0x0 0x0 0x0 0x0 0x0 0x0 0x0 0x1 old_data:  addr=None[0m
[36m2025-08-15 12:40:38.256 DEBUG (MainThread) [pymodbus.logging] Processing: 0x0 0x81 0x0 0x0 0x0 0x25 0xa 0x3 0x22 0x0 0x0 0x0 0x0 0x0 0x0 0x0 0x0 0x0 0xf 0x0 0x0 0x0 0x0 0x0 0x0 0x0 0x0 0x0 0x0 0x4f 0xfc 0x0 0x0 0x0 0x0 0x0 0x0 0x0 0x0 0x0 0x0 0x0 0x1[0m
[36m2025-08-15 12:40:38.257 DEBUG (MainThread) [pymodbus.logging] decoded PDU function_code(3 sub -1) -> ReadHoldingRegistersResponse(dev_id=0, transaction_id=0, address=0, count=0, bits=[], registers=[0, 0, 0, 0, 15, 0, 0, 0, 0, 0, 20476, 0, 0, 0, 0, 0, 1], status=1) [0m
[36m2025-08-15 12:40:38.257 DEBUG (MainThread) [pymodbus.logging] Frame advanced, resetting header!![0m
[36m2025-08-15 12:40:38.257 DEBUG (MainThread) [pymodbus.logging] send: 0x0 0x82 0x0 0x0 0x0 0x6 0xa 0x3 0x10 0x71 0x0 0x10[0m
[36m2025-08-15 12:40:38.453 DEBUG (MainThread) [pymodbus.logging] recv: 0x0 0x82 0x0 0x0 0x0 0x23 0xa 0x3 0x20 0x0 0x0 0x0 0x1e 0x0 0x50 0x0 0x2a 0x0 0x2a 0x0 0x0 0x0 0x0 0x0 0x1e 0x0 0x3c 0x0 0x64 0x24 0x0 0x0 0x0 0x0 0x0 0x0 0x0 0x0 0x0 0x0 0x0 old_data:  addr=None[0m
[36m2025-08-15 12:40:38.453 DEBUG (MainThread) [pymodbus.logging] Processing: 0x0 0x82 0x0 0x0 0x0 0x23 0xa 0x3 0x20 0x0 0x0 0x0 0x1e 0x0 0x50 0x0 0x2a 0x0 0x2a 0x0 0x0 0x0 0x0 0x0 0x1e 0x0 0x3c 0x0 0x64 0x24 0x0 0x0 0x0 0x0 0x0 0x0 0x0 0x0 0x0 0x0 0x0[0m
[36m2025-08-15 12:40:38.453 DEBUG (MainThread) [pymodbus.logging] decoded PDU function_code(3 sub -1) -> ReadHoldingRegistersResponse(dev_id=0, transaction_id=0, address=0, count=0, bits=[], registers=[0, 30, 80, 42, 42, 0, 0, 30, 60, 100, 9216, 0, 0, 0, 0, 0], status=1) [0m
[36m2025-08-15 12:40:38.454 DEBUG (MainThread) [pymodbus.logging] Frame advanced, resetting header!![0m
[36m2025-08-15 12:40:38.454 DEBUG (MainThread) [pymodbus.logging] send: 0x0 0x83 0x0 0x0 0x0 0x6 0xa 0x3 0x10 0x95 0x0 0x1[0m
[36m2025-08-15 12:40:38.593 DEBUG (MainThread) [pymodbus.logging] recv: 0x0 0x83 0x0 0x0 0x0 0x5 0xa 0x3 0x2 0x0 0x0 old_data:  addr=None[0m
[36m2025-08-15 12:40:38.594 DEBUG (MainThread) [pymodbus.logging] Processing: 0x0 0x83 0x0 0x0 0x0 0x5 0xa 0x3 0x2 0x0 0x0[0m
[36m2025-08-15 12:40:38.594 DEBUG (MainThread) [pymodbus.logging] decoded PDU function_code(3 sub -1) -> ReadHoldingRegistersResponse(dev_id=0, transaction_id=0, address=0, count=0, bits=[], registers=[0], status=1) [0m
[36m2025-08-15 12:40:38.594 DEBUG (MainThread) [pymodbus.logging] Frame advanced, resetting header!![0m
[36m2025-08-15 12:40:38.594 DEBUG (MainThread) [pymodbus.logging] send: 0x0 0x84 0x0 0x0 0x0 0x6 0xa 0x3 0x10 0xa0 0x0 0x10[0m
[36m2025-08-15 12:40:38.806 DEBUG (MainThread) [pymodbus.logging] recv: 0x0 0x84 0x0 0x0 0x0 0x23 0xa 0x3 0x20 0x0 0x0 0x0 0xa 0x0 0x32 0x0 0x0 0x0 0x0 0x0 0x50 0x0 0x0 0x0 0x0 0x0 0x4 0x0 0x4 0x0 0x0 0x5 0x0 0x17 0x0 0x19 0x0 0x7 0x0 0x0 0x0 old_data:  addr=None[0m
[36m2025-08-15 12:40:38.806 DEBUG (MainThread) [pymodbus.logging] Processing: 0x0 0x84 0x0 0x0 0x0 0x23 0xa 0x3 0x20 0x0 0x0 0x0 0xa 0x0 0x32 0x0 0x0 0x0 0x0 0x0 0x50 0x0 0x0 0x0 0x0 0x0 0x4 0x0 0x4 0x0 0x0 0x5 0x0 0x17 0x0 0x19 0x0 0x7 0x0 0x0 0x0[0m
[36m2025-08-15 12:40:38.806 DEBUG (MainThread) [pymodbus.logging] decoded PDU function_code(3 sub -1) -> ReadHoldingRegistersResponse(dev_id=0, transaction_id=0, address=0, count=0, bits=[], registers=[0, 10, 50, 0, 0, 80, 0, 0, 4, 4, 0, 1280, 5888, 6400, 1792, 0], status=1) [0m
[36m2025-08-15 12:40:38.806 DEBUG (MainThread) [pymodbus.logging] Frame advanced, resetting header!![0m
[36m2025-08-15 12:40:38.807 DEBUG (MainThread) [pymodbus.logging] send: 0x0 0x85 0x0 0x0 0x0 0x6 0xa 0x3 0x10 0xd0 0x0 0x2[0m
[36m2025-08-15 12:40:38.958 DEBUG (MainThread) [pymodbus.logging] recv: 0x0 0x85 0x0 0x0 0x0 0x7 0xa 0x3 0x4 0x0 0x0 0x0 0x0 old_data:  addr=None[0m
[36m2025-08-15 12:40:38.958 DEBUG (MainThread) [pymodbus.logging] Processing: 0x0 0x85 0x0 0x0 0x0 0x7 0xa 0x3 0x4 0x0 0x0 0x0 0x0[0m
[36m2025-08-15 12:40:38.958 DEBUG (MainThread) [pymodbus.logging] decoded PDU function_code(3 sub -1) -> ReadHoldingRegistersResponse(dev_id=0, transaction_id=0, address=0, count=0, bits=[], registers=[0, 0], status=1) [0m
[36m2025-08-15 12:40:38.959 DEBUG (MainThread) [pymodbus.logging] Frame advanced, resetting header!![0m
[36m2025-08-15 12:40:38.959 DEBUG (MainThread) [pymodbus.logging] send: 0x0 0x86 0x0 0x0 0x0 0x6 0xa 0x3 0x10 0xe0 0x0 0xe[0m
[36m2025-08-15 12:40:39.164 DEBUG (MainThread) [pymodbus.logging] recv: 0x0 0x86 0x0 0x0 0x0 0x1f 0xa 0x3 0x1c 0x0 0x0 0x0 0x14 0x0 0x2e 0x0 0x2e 0x1 0x2c 0x0 0x0 0x0 0x0 0x0 0x0 0x0 0x0 0x0 0x1 0x0 0x0 0x0 0x1 0x0 0x64 0x0 0x5a old_data:  addr=None[0m
[36m2025-08-15 12:40:39.164 DEBUG (MainThread) [pymodbus.logging] Processing: 0x0 0x86 0x0 0x0 0x0 0x1f 0xa 0x3 0x1c 0x0 0x0 0x0 0x14 0x0 0x2e 0x0 0x2e 0x1 0x2c 0x0 0x0 0x0 0x0 0x0 0x0 0x0 0x0 0x0 0x1 0x0 0x0 0x0 0x1 0x0 0x64 0x0 0x5a[0m
[36m2025-08-15 12:40:39.164 DEBUG (MainThread) [pymodbus.logging] decoded PDU function_code(3 sub -1) -> ReadHoldingRegistersResponse(dev_id=0, transaction_id=0, address=0, count=0, bits=[], registers=[0, 20, 46, 46, 300, 0, 0, 0, 0, 1, 0, 1, 100, 90], status=1) [0m
[36m2025-08-15 12:40:39.164 DEBUG (MainThread) [pymodbus.logging] Frame advanced, resetting header!![0m
[36m2025-08-15 12:40:39.165 DEBUG (MainThread) [pymodbus.logging] send: 0x0 0x87 0x0 0x0 0x0 0x6 0xa 0x3 0x11 0x2 0x0 0x4[0m
[36m2025-08-15 12:40:39.346 DEBUG (MainThread) [pymodbus.logging] recv: 0x0 0x87 0x0 0x0 0x0 0xb 0xa 0x3 0x8 0x1 0x4a 0x1 0x4a 0x0 0x6e 0x0 0x6e old_data:  addr=None[0m
[36m2025-08-15 12:40:39.346 DEBUG (MainThread) [pymodbus.logging] Processing: 0x0 0x87 0x0 0x0 0x0 0xb 0xa 0x3 0x8 0x1 0x4a 0x1 0x4a 0x0 0x6e 0x0 0x6e[0m
[36m2025-08-15 12:40:39.346 DEBUG (MainThread) [pymodbus.logging] decoded PDU function_code(3 sub -1) -> ReadHoldingRegistersResponse(dev_id=0, transaction_id=0, address=0, count=0, bits=[], registers=[330, 330, 110, 110], status=1) [0m
[36m2025-08-15 12:40:39.346 DEBUG (MainThread) [pymodbus.logging] Frame advanced, resetting header!![0m
[36m2025-08-15 12:40:39.347 DEBUG (MainThread) [pymodbus.logging] send: 0x0 0x88 0x0 0x0 0x0 0x6 0xa 0x3 0x11 0x20 0x0 0x4[0m
[36m2025-08-15 12:40:39.536 DEBUG (MainThread) [pymodbus.logging] recv: 0x0 0x88 0x0 0x0 0x0 0xb 0xa 0x3 0x8 0x0 0x0 0x0 0x0 0x0 0xb4 0x0 0x1 old_data:  addr=None[0m
[36m2025-08-15 12:40:39.537 DEBUG (MainThread) [pymodbus.logging] Processing: 0x0 0x88 0x0 0x0 0x0 0xb 0xa 0x3 0x8 0x0 0x0 0x0 0x0 0x0 0xb4 0x0 0x1[0m
[36m2025-08-15 12:40:39.537 DEBUG (MainThread) [pymodbus.logging] decoded PDU function_code(3 sub -1) -> ReadHoldingRegistersResponse(dev_id=0, transaction_id=0, address=0, count=0, bits=[], registers=[0, 0, 180, 1], status=1) [0m
[36m2025-08-15 12:40:39.537 DEBUG (MainThread) [pymodbus.logging] Frame advanced, resetting header!![0m
[36m2025-08-15 12:40:39.538 DEBUG (MainThread) [pymodbus.logging] send: 0x0 0x89 0x0 0x0 0x0 0x6 0xa 0x3 0x11 0x2f 0x0 0x10[0m
[36m2025-08-15 12:40:39.734 DEBUG (MainThread) [pymodbus.logging] recv: 0x0 0x89 0x0 0x0 0x0 0x23 0xa 0x3 0x20 0x0 0x0 0x0 0x1 0x0 0x50 0x0 0x0 0x0 0x1 0x0 0x2a 0x0 0x0 0x0 0x0 0x0 0x0 0x0 0x0 0x0 0x0 0x0 0x0 0x0 0x0 0x0 0x0 0x0 0x0 0x0 0x0 old_data:  addr=None[0m
[36m2025-08-15 12:40:39.734 DEBUG (MainThread) [pymodbus.logging] Processing: 0x0 0x89 0x0 0x0 0x0 0x23 0xa 0x3 0x20 0x0 0x0 0x0 0x1 0x0 0x50 0x0 0x0 0x0 0x1 0x0 0x2a 0x0 0x0 0x0 0x0 0x0 0x0 0x0 0x0 0x0 0x0 0x0 0x0 0x0 0x0 0x0 0x0 0x0 0x0 0x0 0x0[0m
[36m2025-08-15 12:40:39.734 DEBUG (MainThread) [pymodbus.logging] decoded PDU function_code(3 sub -1) -> ReadHoldingRegistersResponse(dev_id=0, transaction_id=0, address=0, count=0, bits=[], registers=[0, 1, 80, 0, 1, 42, 0, 0, 0, 0, 0, 0, 0, 0, 0, 0], status=1) [0m
[36m2025-08-15 12:40:39.734 DEBUG (MainThread) [pymodbus.logging] Frame advanced, resetting header!![0m
[36m2025-08-15 12:40:39.735 DEBUG (MainThread) [pymodbus.logging] send: 0x0 0x8a 0x0 0x0 0x0 0x6 0xa 0x3 0x11 0x50 0x0 0x2[0m
[36m2025-08-15 12:40:39.903 DEBUG (MainThread) [pymodbus.logging] recv: 0x0 0x8a 0x0 0x0 0x0 0x7 0xa 0x3 0x4 0x0 0x0 0x0 0x0 old_data:  addr=None[0m
[36m2025-08-15 12:40:39.904 DEBUG (MainThread) [pymodbus.logging] Processing: 0x0 0x8a 0x0 0x0 0x0 0x7 0xa 0x3 0x4 0x0 0x0 0x0 0x0[0m
[36m2025-08-15 12:40:39.904 DEBUG (MainThread) [pymodbus.logging] decoded PDU function_code(3 sub -1) -> ReadHoldingRegistersResponse(dev_id=0, transaction_id=0, address=0, count=0, bits=[], registers=[0, 0], status=1) [0m
[36m2025-08-15 12:40:39.904 DEBUG (MainThread) [pymodbus.logging] Frame advanced, resetting header!![0m
[36m2025-08-15 12:40:39.906 DEBUG (MainThread) [pymodbus.logging] send: 0x0 0x8b 0x0 0x0 0x0 0x6 0xa 0x3 0x1f 0xd0 0x0 0x8[0m
[36m2025-08-15 12:40:40.088 DEBUG (MainThread) [pymodbus.logging] recv: 0x0 0x8b 0x0 0x0 0x0 0x13 0xa 0x3 0x10 0x0 0x0 0x0 0x0 0x0 0x0 0x0 0x0 0x0 0x0 0x0 0x0 0x0 0x0 0x0 0x0 old_data:  addr=None[0m
[36m2025-08-15 12:40:40.088 DEBUG (MainThread) [pymodbus.logging] Processing: 0x0 0x8b 0x0 0x0 0x0 0x13 0xa 0x3 0x10 0x0 0x0 0x0 0x0 0x0 0x0 0x0 0x0 0x0 0x0 0x0 0x0 0x0 0x0 0x0 0x0[0m
[36m2025-08-15 12:40:40.089 DEBUG (MainThread) [pymodbus.logging] decoded PDU function_code(3 sub -1) -> ReadHoldingRegistersResponse(dev_id=0, transaction_id=0, address=0, count=0, bits=[], registers=[0, 0, 0, 0, 0, 0, 0, 0], status=1) [0m
[36m2025-08-15 12:40:40.089 DEBUG (MainThread) [pymodbus.logging] Frame advanced, resetting header!![0m
[36m2025-08-15 12:40:40.089 DEBUG (MainThread) [pymodbus.logging] send: 0x0 0x8c 0x0 0x0 0x0 0x6 0xa 0x3 0x20 0xd 0x0 0x11[0m
[36m2025-08-15 12:40:40.287 DEBUG (MainThread) [pymodbus.logging] recv: 0x0 0x8c 0x0 0x0 0x0 0x25 0xa 0x3 0x22 0x0 0x0 0x0 0x0 0x0 0x0 0x0 0x0 0x0 0x0 0x0 0x0 0x0 0x0 0x0 0x0 0x0 0x0 0x0 0x0 0x0 0x0 0x0 0x0 0x0 0x0 0x0 0x0 0x0 0x0 0x0 0x0 0x0 0x0 old_data:  addr=None[0m
[36m2025-08-15 12:40:40.287 DEBUG (MainThread) [pymodbus.logging] Processing: 0x0 0x8c 0x0 0x0 0x0 0x25 0xa 0x3 0x22 0x0 0x0 0x0 0x0 0x0 0x0 0x0 0x0 0x0 0x0 0x0 0x0 0x0 0x0 0x0 0x0 0x0 0x0 0x0 0x0 0x0 0x0 0x0 0x0 0x0 0x0 0x0 0x0 0x0 0x0 0x0 0x0 0x0 0x0[0m
[36m2025-08-15 12:40:40.288 DEBUG (MainThread) [pymodbus.logging] decoded PDU function_code(3 sub -1) -> ReadHoldingRegistersResponse(dev_id=0, transaction_id=0, address=0, count=0, bits=[], registers=[0, 0, 0, 0, 0, 0, 0, 0, 0, 0, 0, 0, 0, 0, 0, 0, 0], status=1) [0m
[36m2025-08-15 12:40:40.288 DEBUG (MainThread) [pymodbus.logging] Frame advanced, resetting header!![0m
[36m2025-08-15 12:40:40.288 DEBUG (MainThread) [pymodbus.logging] send: 0x0 0x8d 0x0 0x0 0x0 0x6 0xa 0x3 0x20 0x1e 0x0 0x3[0m
[36m2025-08-15 12:40:40.439 DEBUG (MainThread) [pymodbus.logging] recv: 0x0 0x8d 0x0 0x0 0x0 0x9 0xa 0x3 0x6 0x0 0x0 0x0 0x0 0x0 0x0 old_data:  addr=None[0m
[36m2025-08-15 12:40:40.439 DEBUG (MainThread) [pymodbus.logging] Processing: 0x0 0x8d 0x0 0x0 0x0 0x9 0xa 0x3 0x6 0x0 0x0 0x0 0x0 0x0 0x0[0m
[36m2025-08-15 12:40:40.439 DEBUG (MainThread) [pymodbus.logging] decoded PDU function_code(3 sub -1) -> ReadHoldingRegistersResponse(dev_id=0, transaction_id=0, address=0, count=0, bits=[], registers=[0, 0, 0], status=1) [0m
[36m2025-08-15 12:40:40.439 DEBUG (MainThread) [pymodbus.logging] Frame advanced, resetting header!![0m
[36m2025-08-15 12:40:40.440 DEBUG (MainThread) [pymodbus.logging] send: 0x0 0x8e 0x0 0x0 0x0 0x6 0xa 0x3 0x20 0x63 0x0 0x8[0m
[36m2025-08-15 12:40:40.631 DEBUG (MainThread) [pymodbus.logging] recv: 0x0 0x8e 0x0 0x0 0x0 0x13 0xa 0x3 0x10 0x0 0x0 0x0 0x0 0x0 0x0 0x0 0x0 0x0 0x0 0x0 0x0 0x0 0x0 0x0 0x0 old_data:  addr=None[0m
[36m2025-08-15 12:40:40.631 DEBUG (MainThread) [pymodbus.logging] Processing: 0x0 0x8e 0x0 0x0 0x0 0x13 0xa 0x3 0x10 0x0 0x0 0x0 0x0 0x0 0x0 0x0 0x0 0x0 0x0 0x0 0x0 0x0 0x0 0x0 0x0[0m
[36m2025-08-15 12:40:40.631 DEBUG (MainThread) [pymodbus.logging] decoded PDU function_code(3 sub -1) -> ReadHoldingRegistersResponse(dev_id=0, transaction_id=0, address=0, count=0, bits=[], registers=[0, 0, 0, 0, 0, 0, 0, 0], status=1) [0m
[36m2025-08-15 12:40:40.632 DEBUG (MainThread) [pymodbus.logging] Frame advanced, resetting header!![0m
[36m2025-08-15 12:40:40.632 DEBUG (MainThread) [pymodbus.logging] send: 0x0 0x8f 0x0 0x0 0x0 0x6 0xa 0x3 0x20 0x8a 0x0 0x2[0m
[36m2025-08-15 12:40:40.818 DEBUG (MainThread) [pymodbus.logging] recv: 0x0 0x8f 0x0 0x0 0x0 0x7 0xa 0x3 0x4 0x0 0x0 0x0 0x0 old_data:  addr=None[0m
[36m2025-08-15 12:40:40.818 DEBUG (MainThread) [pymodbus.logging] Processing: 0x0 0x8f 0x0 0x0 0x0 0x7 0xa 0x3 0x4 0x0 0x0 0x0 0x0[0m
[36m2025-08-15 12:40:40.818 DEBUG (MainThread) [pymodbus.logging] decoded PDU function_code(3 sub -1) -> ReadHoldingRegistersResponse(dev_id=0, transaction_id=0, address=0, count=0, bits=[], registers=[0, 0], status=1) [0m
[36m2025-08-15 12:40:40.818 DEBUG (MainThread) [pymodbus.logging] Frame advanced, resetting header!![0m
[36m2025-08-15 12:40:40.819 DEBUG (MainThread) [pymodbus.logging] send: 0x0 0x90 0x0 0x0 0x0 0x6 0xa 0x3 0x20 0x98 0x0 0x1[0m
[36m2025-08-15 12:40:41.009 DEBUG (MainThread) [pymodbus.logging] recv: 0x0 0x90 0x0 0x0 0x0 0x5 0xa 0x3 0x2 0x0 0x0 old_data:  addr=None[0m
[36m2025-08-15 12:40:41.009 DEBUG (MainThread) [pymodbus.logging] Processing: 0x0 0x90 0x0 0x0 0x0 0x5 0xa 0x3 0x2 0x0 0x0[0m
[36m2025-08-15 12:40:41.009 DEBUG (MainThread) [pymodbus.logging] decoded PDU function_code(3 sub -1) -> ReadHoldingRegistersResponse(dev_id=0, transaction_id=0, address=0, count=0, bits=[], registers=[0], status=1) [0m
[36m2025-08-15 12:40:41.009 DEBUG (MainThread) [pymodbus.logging] Frame advanced, resetting header!![0m
[36m2025-08-15 12:40:41.010 DEBUG (MainThread) [pymodbus.logging] send: 0x0 0x91 0x0 0x0 0x0 0x6 0xa 0x3 0x20 0xc6 0x0 0x6[0m
[36m2025-08-15 12:40:41.191 DEBUG (MainThread) [pymodbus.logging] recv: 0x0 0x91 0x0 0x0 0x0 0xf 0xa 0x3 0xc 0x0 0x0 0x0 0x0 0x0 0x0 0x0 0x0 0x0 0x0 0x0 0x0 old_data:  addr=None[0m
[36m2025-08-15 12:40:41.192 DEBUG (MainThread) [pymodbus.logging] Processing: 0x0 0x91 0x0 0x0 0x0 0xf 0xa 0x3 0xc 0x0 0x0 0x0 0x0 0x0 0x0 0x0 0x0 0x0 0x0 0x0 0x0[0m
[36m2025-08-15 12:40:41.192 DEBUG (MainThread) [pymodbus.logging] decoded PDU function_code(3 sub -1) -> ReadHoldingRegistersResponse(dev_id=0, transaction_id=0, address=0, count=0, bits=[], registers=[0, 0, 0, 0, 0, 0], status=1) [0m
[36m2025-08-15 12:40:41.192 DEBUG (MainThread) [pymodbus.logging] Frame advanced, resetting header!![0m
[36m2025-08-15 12:40:41.192 DEBUG (MainThread) [pymodbus.logging] send: 0x0 0x92 0x0 0x0 0x0 0x6 0xa 0x3 0x20 0xf9 0x0 0x4[0m
[36m2025-08-15 12:40:41.387 DEBUG (MainThread) [pymodbus.logging] recv: 0x0 0x92 0x0 0x0 0x0 0xb 0xa 0x3 0x8 0x0 0x0 0x0 0x0 0x0 0x0 0x0 0x0 old_data:  addr=None[0m
[36m2025-08-15 12:40:41.387 DEBUG (MainThread) [pymodbus.logging] Processing: 0x0 0x92 0x0 0x0 0x0 0xb 0xa 0x3 0x8 0x0 0x0 0x0 0x0 0x0 0x0 0x0 0x0[0m
[36m2025-08-15 12:40:41.387 DEBUG (MainThread) [pymodbus.logging] decoded PDU function_code(3 sub -1) -> ReadHoldingRegistersResponse(dev_id=0, transaction_id=0, address=0, count=0, bits=[], registers=[0, 0, 0, 0], status=1) [0m
[36m2025-08-15 12:40:41.387 DEBUG (MainThread) [pymodbus.logging] Frame advanced, resetting header!![0m
[36m2025-08-15 12:40:41.388 DEBUG (MainThread) [pymodbus.logging] send: 0x0 0x93 0x0 0x0 0x0 0x6 0xa 0x1 0x0 0x5 0x0 0xb[0m
[36m2025-08-15 12:40:41.552 DEBUG (MainThread) [pymodbus.logging] recv: 0x0 0x93 0x0 0x0 0x0 0x5 0xa 0x1 0x2 0x42 0x0 old_data:  addr=None[0m
[36m2025-08-15 12:40:41.552 DEBUG (MainThread) [pymodbus.logging] Processing: 0x0 0x93 0x0 0x0 0x0 0x5 0xa 0x1 0x2 0x42 0x0[0m
[36m2025-08-15 12:40:41.552 DEBUG (MainThread) [pymodbus.logging] decoded PDU function_code(1 sub -1) -> ReadCoilsResponse(dev_id=0, transaction_id=0, address=0, count=0, bits=[False, True, False, False, False, False, True, False, False, False, False, False, False, False, False, False], registers=[], status=1) [0m
[36m2025-08-15 12:40:41.553 DEBUG (MainThread) [pymodbus.logging] Frame advanced, resetting header!![0m
[36m2025-08-15 12:40:41.553 DEBUG (MainThread) [pymodbus.logging] send: 0x0 0x94 0x0 0x0 0x0 0x6 0xa 0x2 0x0 0x0 0x0 0x10[0m
[36m2025-08-15 12:40:41.733 DEBUG (MainThread) [pymodbus.logging] recv: 0x0 0x94 0x0 0x0 0x0 0x5 0xa 0x2 0x2 0x1c 0xc3 old_data:  addr=None[0m
[36m2025-08-15 12:40:41.733 DEBUG (MainThread) [pymodbus.logging] Processing: 0x0 0x94 0x0 0x0 0x0 0x5 0xa 0x2 0x2 0x1c 0xc3[0m
[36m2025-08-15 12:40:41.733 DEBUG (MainThread) [pymodbus.logging] decoded PDU function_code(2 sub -1) -> ReadDiscreteInputsResponse(dev_id=0, transaction_id=0, address=0, count=0, bits=[False, False, True, True, True, False, False, False, True, True, False, False, False, False, True, True], registers=[], status=1) [0m
[36m2025-08-15 12:40:41.733 DEBUG (MainThread) [pymodbus.logging] Frame advanced, resetting header!![0m
[36m2025-08-15 12:40:41.734 DEBUG (MainThread) [pymodbus.logging] send: 0x0 0x95 0x0 0x0 0x0 0x6 0xa 0x2 0x0 0x12 0x0 0x4[0m
[36m2025-08-15 12:40:41.913 DEBUG (MainThread) [pymodbus.logging] recv: 0x0 0x95 0x0 0x0 0x0 0x4 0xa 0x2 0x1 0x0 old_data:  addr=None[0m
[36m2025-08-15 12:40:41.913 DEBUG (MainThread) [pymodbus.logging] Processing: 0x0 0x95 0x0 0x0 0x0 0x4 0xa 0x2 0x1 0x0[0m
[36m2025-08-15 12:40:41.913 DEBUG (MainThread) [pymodbus.logging] decoded PDU function_code(2 sub -1) -> ReadDiscreteInputsResponse(dev_id=0, transaction_id=0, address=0, count=0, bits=[False, False, False, False, False, False, False, False], registers=[], status=1) [0m
[36m2025-08-15 12:40:41.914 DEBUG (MainThread) [pymodbus.logging] Frame advanced, resetting header!![0m
[36m2025-08-15 12:40:41.914 DEBUG (MainThread) [custom_components.thessla_green_modbus.coordinator] Data update successful: 268 values read in 6.76s[0m
[36m2025-08-15 12:40:41.914 DEBUG (MainThread) [custom_components.thessla_green_modbus.coordinator] Finished fetching thessla_green_modbus_ThesslaGreen data in 6.757 seconds (success: True)[0m
[33m2025-08-15 12:40:49.436 WARNING (MainThread) [homeassistant.helpers.service] Referenced entities number.rekuperator_predkosc are missing or not currently available[0m
[33m2025-08-15 12:40:49.439 WARNING (MainThread) [homeassistant.helpers.service] Referenced entities number.rekuperator_predkosc are missing or not currently available[0m
[36m2025-08-15 12:41:11.156 DEBUG (MainThread) [pymodbus.logging] send: 0x0 0x96 0x0 0x0 0x0 0x6 0xa 0x4 0x1 0xf 0x0 0x7[0m
[36m2025-08-15 12:41:11.324 DEBUG (MainThread) [pymodbus.logging] recv: 0x0 0x96 0x0 0x0 0x0 0x11 0xa 0x4 0xe 0x0 0x1 0x0 0x1e 0x0 0x1e 0x0 0x63 0x0 0x63 0x0 0xa 0x0 0x6d old_data:  addr=None[0m
[36m2025-08-15 12:41:11.325 DEBUG (MainThread) [pymodbus.logging] Processing: 0x0 0x96 0x0 0x0 0x0 0x11 0xa 0x4 0xe 0x0 0x1 0x0 0x1e 0x0 0x1e 0x0 0x63 0x0 0x63 0x0 0xa 0x0 0x6d[0m
[36m2025-08-15 12:41:11.325 DEBUG (MainThread) [pymodbus.logging] decoded PDU function_code(4 sub -1) -> ReadInputRegistersResponse(dev_id=0, transaction_id=0, address=0, count=0, bits=[], registers=[1, 30, 30, 99, 99, 10, 109], status=1) [0m
[36m2025-08-15 12:41:11.325 DEBUG (MainThread) [pymodbus.logging] Frame advanced, resetting header!![0m
[36m2025-08-15 12:41:11.325 DEBUG (MainThread) [pymodbus.logging] send: 0x0 0x97 0x0 0x0 0x0 0x6 0xa 0x3 0x0 0x10 0x0 0x10[0m
[36m2025-08-15 12:41:11.525 DEBUG (MainThread) [pymodbus.logging] recv: 0x0 0x97 0x0 0x0 0x0 0x23 0xa 0x3 0x20 0x4 0x0 0x6 0x0 0x13 0x0 0x15 0x0 0x4 0x0 0x6 0x0 0x13 0x0 0x15 0x0 0x4 0x0 0x6 0x0 0x13 0x0 0x15 0x0 0x4 0x0 0x6 0x0 0x13 0x0 0x15 0x0 old_data:  addr=None[0m
[36m2025-08-15 12:41:11.525 DEBUG (MainThread) [pymodbus.logging] Processing: 0x0 0x97 0x0 0x0 0x0 0x23 0xa 0x3 0x20 0x4 0x0 0x6 0x0 0x13 0x0 0x15 0x0 0x4 0x0 0x6 0x0 0x13 0x0 0x15 0x0 0x4 0x0 0x6 0x0 0x13 0x0 0x15 0x0 0x4 0x0 0x6 0x0 0x13 0x0 0x15 0x0[0m
[36m2025-08-15 12:41:11.525 DEBUG (MainThread) [pymodbus.logging] decoded PDU function_code(3 sub -1) -> ReadHoldingRegistersResponse(dev_id=0, transaction_id=0, address=0, count=0, bits=[], registers=[1024, 1536, 4864, 5376, 1024, 1536, 4864, 5376, 1024, 1536, 4864, 5376, 1024, 1536, 4864, 5376], status=1) [0m
[36m2025-08-15 12:41:11.525 DEBUG (MainThread) [pymodbus.logging] Frame advanced, resetting header!![0m
[36m2025-08-15 12:41:11.526 DEBUG (MainThread) [pymodbus.logging] send: 0x0 0x98 0x0 0x0 0x0 0x6 0xa 0x3 0x0 0x20 0x0 0x10[0m
